EC-Lab ASCII FILE
Nb header lines : 66                          

Potentio Electrochemical Impedance Spectroscopy

Run on channel : 3 (SN 13993)
User : 
CE vs. WE compliance from -10 V to 10 V
Electrode connection : standard
Potential control : Ewe
Ewe ctrl range : min = -1.00 V, max = 1.00 V
Safety Limits :
	Do not start on E overload
Acquisition started on : 09/05/2018 15:23:15.000
Loaded Setting File : NONE
Saved on :
	File : RM_stacked second run D12_1_C03.mpr
	Directory : D:\Robert\Stacked cells\Second run 3% and 12% PVDF electrodes 12%compressed\
	Host : 10.5.5.6
Device : VMP3 (SN 0628)
Address : 10.5.5.5
EC-Lab for windows v11.17 (software)
Internet server v11.16 (firmware)
Command interpretor v11.16 (firmware)
Electrode material : 
Initial state : 
Electrolyte : 
Comments : 
Electrode surface area : 0.001 cm²
Characteristic mass : 0.001 g
Equivalent Weight : 0.000 g/eq.
Density : 0.000 g/cm3
Volume (V) : 0.000 m³
Text export
   Mode : Standard
   Time format : Elapsed
Cycle Definition : Charge/Discharge alternance
Mode                Single sine         
E (V)               0.0000              
vs.                 Eoc                 
tE (h:m:s)          0:00:3.0000         
record              1                   
dI                  0.000               
unit dI             mA                  
dt (s)              60.000              
fi                  200.000             
unit fi             kHz                 
ff                  10.000              
unit ff             mHz                 
Nd                  8                   
Points              per decade          
spacing             Logarithmic         
Va (mV)             20.0                
pw                  3.00                
Na                  5                   
corr                0                   
E range min (V)     -1.000              
E range max (V)     1.000               
I Range             Auto                
Bandwidth           5                   
nc cycles           0                   
goto Ns'            0                   
nr cycles           0                   
inc. cycle          0                   

freq/Hz	Re(Z)/Ohm	-Im(Z)/Ohm	|Z|/Ohm	Phase(Z)/deg	time/s	<Ewe>/V	<I>/mA	Cs/µF	Cp/µF	cycle number	I Range	|Ewe|/V	|I|/A	Re(Y)/Ohm-1	Im(Y)/Ohm-1	|Y|/Ohm-1	Phase(Y)/deg	Re(C)/nF	Im(C)/nF	|C|/nF	Phase(C)/deg	Re(M)	Im(M)	|M|	Phase(M)/deg	Re(Permittivity)	Im(Permittivity)	|Permittivity|	Phase(Permittivity)/deg	Re(Resistivity)/Ohm.cm	Im(Resistivity)/Ohm.cm	|Resistivity|/Ohm.cm	Phase(Resistivity)/deg	Re(Conductivity)/mS/cm	Im(Conductivity)/mS/cm	|Conductivity|/mS/cm	Phase(Conductivity)/deg	Tan(Delta)	Loss Angle(Delta)/deg	
2.0001948E+005	1.4097951E+002	1.4951314E+000	1.4098744E+002	-6.0761666E-001	09/05/2018 15:23:20.3321	8.5561350E-003	2.5523512E-003	5.3219217E-001	5.9850299E-005	1.000000000000000E+000	11	1.8120704E-002	1.2852708E-004	7.0924312E-003	7.5217424E-005	7.0928303E-003	6.0761666E-001	5.9850644E-002	5.6434274E+000	5.6437449E+000	-8.9392380E+001	0.0000000E+000	0.0000000E+000	0.0000000E+000	8.9392380E+001	0.0000000E+000	0.0000000E+000	0.0000000E+000	-8.9392380E+001	0.0000000E+000	0.0000000E+000	0.0000000E+000	-6.0761666E-001	0.0000000E+000	0.0000000E+000	0.0000000E+000	6.0761666E-001	9.4292389E+001	8.9392380E+001
1.4967770E+005	1.4061391E+002	1.4903028E+000	1.4062181E+002	-6.0722911E-001	09/05/2018 15:23:21.3961	8.5543459E-003	2.3791410E-003	7.1349102E-001	8.0136830E-005	1.000000000000000E+000	11	2.0527575E-002	1.4597717E-004	7.1108728E-003	7.5364900E-005	7.1112723E-003	6.0722911E-001	8.0137096E-002	7.5611167E+000	7.5615416E+000	-8.9392769E+001	0.0000000E+000	0.0000000E+000	0.0000000E+000	8.9392769E+001	0.0000000E+000	0.0000000E+000	0.0000000E+000	-8.9392769E+001	0.0000000E+000	0.0000000E+000	0.0000000E+000	-6.0722911E-001	0.0000000E+000	0.0000000E+000	0.0000000E+000	6.0722911E-001	9.4352577E+001	8.9392769E+001
1.1201170E+005	1.4053297E+002	1.5115626E+000	1.4054111E+002	-6.1624551E-001	09/05/2018 15:23:22.4601	8.5651707E-003	2.3715049E-003	9.4000602E-001	1.0873670E-004	1.000000000000000E+000	11	2.0748772E-002	1.4763490E-004	7.1149445E-003	7.6527831E-005	7.1153562E-003	6.1624551E-001	1.0873733E-001	1.0109468E+001	1.0110052E+001	-8.9383751E+001	0.0000000E+000	0.0000000E+000	0.0000000E+000	8.9383751E+001	0.0000000E+000	0.0000000E+000	0.0000000E+000	-8.9383751E+001	0.0000000E+000	0.0000000E+000	0.0000000E+000	-6.1624551E-001	0.0000000E+000	0.0000000E+000	0.0000000E+000	6.1624551E-001	9.2971985E+001	8.9383751E+001
8.3828102E+004	1.4060634E+002	1.5329536E+000	1.4061470E+002	-6.2463963E-001	09/05/2018 15:23:23.5251	8.6015770E-003	2.4081958E-003	1.2385156E+000	1.4719670E-004	1.000000000000000E+000	11	2.0674497E-002	1.4702941E-004	7.1112090E-003	7.7529607E-005	7.1116318E-003	6.2463963E-001	1.4719713E-001	1.3501250E+001	1.3502052E+001	-8.9375359E+001	0.0000000E+000	0.0000000E+000	0.0000000E+000	8.9375359E+001	0.0000000E+000	0.0000000E+000	0.0000000E+000	-8.9375359E+001	0.0000000E+000	0.0000000E+000	0.0000000E+000	-6.2463963E-001	0.0000000E+000	0.0000000E+000	0.0000000E+000	6.2463963E-001	9.1722504E+001	8.9375359E+001
6.2734359E+004	1.4070932E+002	1.5973583E+000	1.4071838E+002	-6.5040439E-001	09/05/2018 15:23:24.5901	8.6061973E-003	2.3711324E-003	1.5882260E+000	2.0465170E-004	1.000000000000000E+000	11	2.0662984E-002	1.4683926E-004	7.1059344E-003	8.0667887E-005	7.1063922E-003	6.5040439E-001	2.0465215E-001	1.8027514E+001	1.8028675E+001	-8.9349594E+001	0.0000000E+000	0.0000000E+000	0.0000000E+000	8.9349594E+001	0.0000000E+000	0.0000000E+000	0.0000000E+000	-8.9349594E+001	0.0000000E+000	0.0000000E+000	0.0000000E+000	-6.5040439E-001	0.0000000E+000	0.0000000E+000	0.0000000E+000	6.5040439E-001	8.8088760E+001	8.9349594E+001
4.6953109E+004	1.4087364E+002	1.5735158E+000	1.4088243E+002	-6.3994980E-001	09/05/2018 15:23:25.6551	8.6168181E-003	2.3852871E-003	2.1541934E+000	2.6872818E-004	1.000000000000000E+000	11	2.0488564E-002	1.4543023E-004	7.0976745E-003	7.9278863E-005	7.0981174E-003	6.3994980E-001	2.6872975E-001	2.4058681E+001	2.4060183E+001	-8.9360046E+001	0.0000000E+000	0.0000000E+000	0.0000000E+000	8.9360046E+001	0.0000000E+000	0.0000000E+000	0.0000000E+000	-8.9360046E+001	0.0000000E+000	0.0000000E+000	0.0000000E+000	-6.3994980E-001	0.0000000E+000	0.0000000E+000	0.0000000E+000	6.3994980E-001	8.9527954E+001	8.9360046E+001
3.5136707E+004	1.4109554E+002	1.6356637E+000	1.4110501E+002	-6.6417718E-001	09/05/2018 15:23:26.7201	8.6151222E-003	2.3925509E-003	2.7692685E+000	3.7210734E-004	1.000000000000000E+000	11	2.0431779E-002	1.4479840E-004	7.0864442E-003	8.2150298E-005	7.0869206E-003	6.6417718E-001	3.7210718E-001	3.2098701E+001	3.2100857E+001	-8.9335823E+001	0.0000000E+000	0.0000000E+000	0.0000000E+000	8.9335823E+001	0.0000000E+000	0.0000000E+000	0.0000000E+000	-8.9335823E+001	0.0000000E+000	0.0000000E+000	0.0000000E+000	-6.6417718E-001	0.0000000E+000	0.0000000E+000	0.0000000E+000	6.6417718E-001	8.6261948E+001	8.9335823E+001
2.6298820E+004	1.4125984E+002	1.7461213E+000	1.4127063E+002	-7.0820051E-001	09/05/2018 15:23:27.7851	8.6283507E-003	2.4677953E-003	3.4658475E+000	5.2948605E-004	1.000000000000000E+000	11	2.0297134E-002	1.4367554E-004	7.0780716E-003	8.7492466E-005	7.0786122E-003	7.0820051E-001	5.2948457E-001	4.2835003E+001	4.2838276E+001	-8.9291801E+001	0.0000000E+000	0.0000000E+000	0.0000000E+000	8.9291801E+001	0.0000000E+000	0.0000000E+000	0.0000000E+000	-8.9291801E+001	0.0000000E+000	0.0000000E+000	0.0000000E+000	-7.0820051E-001	0.0000000E+000	0.0000000E+000	0.0000000E+000	7.0820051E-001	8.0899216E+001	8.9291801E+001
1.9677732E+004	1.4147769E+002	1.8175739E+000	1.4148936E+002	-7.3604244E-001	09/05/2018 15:23:28.8501	8.5953167E-003	2.3608890E-003	4.4499283E+000	7.3432713E-004	1.000000000000000E+000	11	2.0207815E-002	1.4282214E-004	7.0670862E-003	9.0791356E-005	7.0676692E-003	7.3604244E-001	7.3433053E-001	5.7159111E+001	5.7163826E+001	-8.9263954E+001	0.0000000E+000	0.0000000E+000	0.0000000E+000	8.9263954E+001	0.0000000E+000	0.0000000E+000	0.0000000E+000	-8.9263954E+001	0.0000000E+000	0.0000000E+000	0.0000000E+000	-7.3604244E-001	0.0000000E+000	0.0000000E+000	0.0000000E+000	7.3604244E-001	7.7838753E+001	8.9263954E+001
1.4726557E+004	1.4176541E+002	2.0306280E+000	1.4177995E+002	-8.2064062E-001	09/05/2018 15:23:29.7891	8.5858330E-003	2.2754010E-003	5.3221674E+000	1.0917410E-003	1.000000000000000E+000	11	2.1279261E-002	1.5008653E-004	7.0524598E-003	1.0101845E-004	7.0531834E-003	8.2064062E-001	1.0917410E+000	7.6218353E+001	7.6226173E+001	-8.9179359E+001	0.0000000E+000	0.0000000E+000	0.0000000E+000	8.9179359E+001	0.0000000E+000	0.0000000E+000	0.0000000E+000	-8.9179359E+001	0.0000000E+000	0.0000000E+000	0.0000000E+000	-8.2064062E-001	0.0000000E+000	0.0000000E+000	0.0000000E+000	8.2064062E-001	6.9813583E+001	8.9179359E+001
1.1025388E+004	1.4207253E+002	2.2308900E+000	1.4209004E+002	-8.9961147E-001	09/05/2018 15:23:30.7281	8.6032543E-003	2.3836116E-003	6.4706531E+000	1.5950605E-003	1.000000000000000E+000	11	2.1953866E-002	1.5450672E-004	7.0369234E-003	1.1049709E-004	7.0377910E-003	8.9961147E-001	1.5950623E+000	1.0158022E+002	1.0159274E+002	-8.9100388E+001	0.0000000E+000	0.0000000E+000	0.0000000E+000	8.9100388E+001	0.0000000E+000	0.0000000E+000	0.0000000E+000	-8.9100388E+001	0.0000000E+000	0.0000000E+000	0.0000000E+000	-8.9961147E-001	0.0000000E+000	0.0000000E+000	0.0000000E+000	8.9961147E-001	6.3684235E+001	8.9100388E+001
8.3251924E+003	1.4231952E+002	2.4697185E+000	1.4234094E+002	-9.9417323E-001	09/05/2018 15:23:31.9646	8.6282576E-003	2.4327808E-003	7.7406678E+000	2.3303097E-003	1.000000000000000E+000	11	2.0247754E-002	1.4224827E-004	7.0243282E-003	1.2189554E-004	7.0253857E-003	9.9417323E-001	2.3303051E+000	1.3428598E+002	1.3430620E+002	-8.9005829E+001	0.0000000E+000	0.0000000E+000	0.0000000E+000	8.9005829E+001	0.0000000E+000	0.0000000E+000	0.0000000E+000	-8.9005829E+001	0.0000000E+000	0.0000000E+000	0.0000000E+000	-9.9417323E-001	0.0000000E+000	0.0000000E+000	0.0000000E+000	9.9417323E-001	5.7625809E+001	8.9005829E+001
6.1954932E+003	1.4269873E+002	2.8097951E+000	1.4272639E+002	-1.1280310E+000	09/05/2018 15:23:33.3799	8.6328778E-003	2.1647699E-003	9.1425982E+000	3.5433196E-003	1.000000000000000E+000	11	2.0468798E-002	1.4341284E-004	7.0050545E-003	1.3793232E-004	7.0064124E-003	1.1280310E+000	3.5433128E+000	1.7995163E+002	1.7998651E+002	-8.8871971E+001	0.0000000E+000	0.0000000E+000	0.0000000E+000	8.8871971E+001	0.0000000E+000	0.0000000E+000	0.0000000E+000	-8.8871971E+001	0.0000000E+000	0.0000000E+000	0.0000000E+000	-1.1280310E+000	0.0000000E+000	0.0000000E+000	0.0000000E+000	1.1280310E+000	5.0786167E+001	8.8871971E+001
4.6214780E+003	1.4313271E+002	3.2307050E+000	1.4316916E+002	-1.2930262E+000	09/05/2018 15:23:35.0677	8.6404420E-003	2.2472776E-003	1.0659625E+001	5.4279719E-003	1.000000000000000E+000	11	2.0592581E-002	1.4383392E-004	6.9829663E-003	1.5761530E-004	6.9847447E-003	1.2930262E+000	5.4279871E+000	2.4048012E+002	2.4054137E+002	-8.8706970E+001	0.0000000E+000	0.0000000E+000	0.0000000E+000	8.8706970E+001	0.0000000E+000	0.0000000E+000	0.0000000E+000	-8.8706970E+001	0.0000000E+000	0.0000000E+000	0.0000000E+000	-1.2930262E+000	0.0000000E+000	0.0000000E+000	0.0000000E+000	1.2930262E+000	4.4303860E+001	8.8706970E+001
3.4561052E+003	1.4361993E+002	3.6810882E+000	1.4366710E+002	-1.4682130E+000	09/05/2018 15:23:36.7557	8.6399764E-003	2.2428078E-003	1.2509990E+001	8.2128663E-003	1.000000000000000E+000	11	2.0657215E-002	1.4378529E-004	6.9582509E-003	1.7834526E-004	6.9605359E-003	1.4682130E+000	8.2128820E+000	3.2043005E+002	3.2053528E+002	-8.8531784E+001	0.0000000E+000	0.0000000E+000	0.0000000E+000	8.8531784E+001	0.0000000E+000	0.0000000E+000	0.0000000E+000	-8.8531784E+001	0.0000000E+000	0.0000000E+000	0.0000000E+000	-1.4682130E+000	0.0000000E+000	0.0000000E+000	0.0000000E+000	1.4682130E+000	3.9015617E+001	8.8531784E+001
2.5858269E+003	1.4418968E+002	4.2727985E+000	1.4425298E+002	-1.6973593E+000	09/05/2018 15:23:38.4417	8.6389706E-003	2.1899133E-003	1.4404835E+001	1.2638151E-002	1.000000000000000E+000	11	2.0695690E-002	1.4346803E-004	6.9292244E-003	2.0533495E-004	6.9322661E-003	1.6973593E+000	1.2638135E+001	4.2648651E+002	4.2667374E+002	-8.8302643E+001	0.0000000E+000	0.0000000E+000	0.0000000E+000	8.8302643E+001	0.0000000E+000	0.0000000E+000	0.0000000E+000	-8.8302643E+001	0.0000000E+000	0.0000000E+000	0.0000000E+000	-1.6973593E+000	0.0000000E+000	0.0000000E+000	0.0000000E+000	1.6973593E+000	3.3745960E+001	8.8302643E+001
1.9356189E+003	1.4487459E+002	4.9236732E+000	1.4495824E+002	-1.9464915E+000	09/05/2018 15:23:40.1287	8.6364551E-003	2.1934521E-003	1.6699791E+001	1.9266538E-002	1.000000000000000E+000	11	2.0717174E-002	1.4291823E-004	6.8945582E-003	2.3431680E-004	6.8985387E-003	1.9464915E+000	1.9266573E+001	5.6690033E+002	5.6722760E+002	-8.8053505E+001	0.0000000E+000	0.0000000E+000	0.0000000E+000	8.8053505E+001	0.0000000E+000	0.0000000E+000	0.0000000E+000	-8.8053505E+001	0.0000000E+000	0.0000000E+000	0.0000000E+000	-1.9464915E+000	0.0000000E+000	0.0000000E+000	0.0000000E+000	1.9464915E+000	2.9424088E+001	8.8053505E+001
1.4486094E+003	1.4559210E+002	5.6824961E+000	1.4570296E+002	-2.2351339E+000	09/05/2018 15:23:41.8179	8.6276615E-003	2.1826499E-003	1.9334356E+001	2.9408392E-002	1.000000000000000E+000	11	2.0724855E-002	1.4224046E-004	6.8580573E-003	2.6767165E-004	6.8632788E-003	2.2351339E+000	2.9408342E+001	7.5347693E+002	7.5405060E+002	-8.7764870E+001	0.0000000E+000	0.0000000E+000	0.0000000E+000	8.7764870E+001	0.0000000E+000	0.0000000E+000	0.0000000E+000	-8.7764870E+001	0.0000000E+000	0.0000000E+000	0.0000000E+000	-2.2351339E+000	0.0000000E+000	0.0000000E+000	0.0000000E+000	2.2351339E+000	2.5621153E+001	8.7764870E+001
1.0839595E+003	1.4649149E+002	6.5693183E+000	1.4663872E+002	-2.5676725E+000	09/05/2018 15:23:43.5070	8.6344061E-003	2.2031371E-003	2.2350477E+001	4.4856984E-002	1.000000000000000E+000	11	2.0731516E-002	1.4137819E-004	6.8126349E-003	3.0550826E-004	6.8194815E-003	2.5676725E+000	4.4856987E+001	1.0002814E+003	1.0012867E+003	-8.7432327E+001	0.0000000E+000	0.0000000E+000	0.0000000E+000	8.7432327E+001	0.0000000E+000	0.0000000E+000	0.0000000E+000	-8.7432327E+001	0.0000000E+000	0.0000000E+000	0.0000000E+000	-2.5676725E+000	0.0000000E+000	0.0000000E+000	0.0000000E+000	2.5676725E+000	2.2299343E+001	8.7432327E+001
8.1129767E+002	1.4748506E+002	7.6075568E+000	1.4768114E+002	-2.9528072E+000	09/05/2018 15:23:45.1934	8.6331200E-003	2.1455865E-003	2.5786636E+001	6.8428189E-002	1.000000000000000E+000	11	2.0732390E-002	1.4038617E-004	6.7623551E-003	3.4881503E-004	6.7713456E-003	2.9528072E+000	6.8428131E+001	1.3265935E+003	1.3283572E+003	-8.7047195E+001	0.0000000E+000	0.0000000E+000	0.0000000E+000	8.7047195E+001	0.0000000E+000	0.0000000E+000	0.0000000E+000	-8.7047195E+001	0.0000000E+000	0.0000000E+000	0.0000000E+000	-2.9528072E+000	0.0000000E+000	0.0000000E+000	0.0000000E+000	2.9528072E+000	1.9386652E+001	8.7047195E+001
6.0752716E+002	1.4859932E+002	8.7882614E+000	1.4885896E+002	-3.3845680E+000	09/05/2018 15:23:46.8739	8.6250529E-003	2.1165321E-003	2.9809277E+001	1.0389806E-001	1.000000000000000E+000	11	2.0734044E-002	1.3928649E-004	6.7060506E-003	3.9660028E-004	6.7177680E-003	3.3845680E+000	1.0389804E+002	1.7567958E+003	1.7598654E+003	-8.6615433E+001	0.0000000E+000	0.0000000E+000	0.0000000E+000	8.6615433E+001	0.0000000E+000	0.0000000E+000	0.0000000E+000	-8.6615433E+001	0.0000000E+000	0.0000000E+000	0.0000000E+000	-3.3845680E+000	0.0000000E+000	0.0000000E+000	0.0000000E+000	3.3845680E+000	1.6908842E+001	8.6615433E+001
4.5456351E+002	1.4990521E+002	1.0205259E+001	1.5025218E+002	-3.8945777E+000	09/05/2018 15:23:48.5629	8.6283507E-003	2.0524627E-003	3.4308483E+001	1.5827344E-001	1.000000000000000E+000	11	2.0733684E-002	1.3799257E-004	6.6401078E-003	4.5204585E-004	6.6554775E-003	3.8945777E+000	1.5827339E+002	2.3248806E+003	2.3302620E+003	-8.6105423E+001	0.0000000E+000	0.0000000E+000	0.0000000E+000	8.6105423E+001	0.0000000E+000	0.0000000E+000	0.0000000E+000	-8.6105423E+001	0.0000000E+000	0.0000000E+000	0.0000000E+000	-3.8945777E+000	0.0000000E+000	0.0000000E+000	0.0000000E+000	3.8945777E+000	1.4689015E+001	8.6105423E+001
3.4010876E+002	1.5145575E+002	1.1911441E+001	1.5192342E+002	-4.4968476E+000	09/05/2018 15:23:50.2507	8.6263567E-003	2.1662603E-003	3.9286018E+001	2.4150003E-001	1.000000000000000E+000	11	2.0737074E-002	1.3649689E-004	6.5620015E-003	5.1607745E-004	6.5822639E-003	4.4968476E+000	2.4150009E+002	3.0707085E+003	3.0801904E+003	-8.5503151E+001	0.0000000E+000	0.0000000E+000	0.0000000E+000	8.5503151E+001	0.0000000E+000	0.0000000E+000	0.0000000E+000	-8.5503151E+001	0.0000000E+000	0.0000000E+000	0.0000000E+000	-4.4968476E+000	0.0000000E+000	0.0000000E+000	0.0000000E+000	4.4968476E+000	1.2715149E+001	8.5503151E+001
2.5443001E+002	1.5316960E+002	1.3872209E+001	1.5379651E+002	-5.1750245E+000	09/05/2018 15:23:51.9412	8.6325053E-003	2.1334807E-003	4.5092693E+001	3.6686346E-001	1.000000000000000E+000	11	2.0730691E-002	1.3479299E-004	6.4755948E-003	5.8647926E-004	6.5020984E-003	5.1750245E+000	3.6686356E+002	4.0507126E+003	4.0672917E+003	-8.4824974E+001	0.0000000E+000	0.0000000E+000	0.0000000E+000	8.4824974E+001	0.0000000E+000	0.0000000E+000	0.0000000E+000	-8.4824974E+001	0.0000000E+000	0.0000000E+000	0.0000000E+000	-5.1750245E+000	0.0000000E+000	0.0000000E+000	0.0000000E+000	5.1750245E+000	1.1041471E+001	8.4824974E+001
1.9054874E+002	1.5526363E+002	1.6160009E+001	1.5610234E+002	-5.9420128E+000	09/05/2018 15:23:53.6232	8.6285928E-003	2.1347841E-003	5.1685940E+001	5.5390698E-001	1.000000000000000E+000	11	2.0733912E-002	1.3282255E-004	6.3716355E-003	6.6316681E-004	6.4060539E-003	5.9420128E+000	5.5390729E+002	5.3218784E+003	5.3506265E+003	-8.4057983E+001	0.0000000E+000	0.0000000E+000	0.0000000E+000	8.4057983E+001	0.0000000E+000	0.0000000E+000	0.0000000E+000	-8.4057983E+001	0.0000000E+000	0.0000000E+000	0.0000000E+000	-5.9420128E+000	0.0000000E+000	0.0000000E+000	0.0000000E+000	5.9420128E+000	9.6078920E+000	8.4057983E+001
1.4249214E+002	1.5759489E+002	1.8925371E+001	1.5872719E+002	-6.8477855E+000	09/05/2018 15:23:55.3373	8.6279782E-003	2.0533931E-003	5.9018044E+001	8.3901745E-001	1.000000000000000E+000	11	2.0732662E-002	1.3061821E-004	6.2551755E-003	7.5117609E-004	6.3001178E-003	6.8477855E+000	8.3901746E+002	6.9866455E+003	7.0368433E+003	-8.3152214E+001	0.0000000E+000	0.0000000E+000	0.0000000E+000	8.3152214E+001	0.0000000E+000	0.0000000E+000	0.0000000E+000	-8.3152214E+001	0.0000000E+000	0.0000000E+000	0.0000000E+000	-6.8477855E+000	0.0000000E+000	0.0000000E+000	0.0000000E+000	6.8477855E+000	8.3271761E+000	8.3152214E+001
1.0667264E+002	1.6039517E+002	2.2175892E+001	1.6192091E+002	-7.8716879E+000	09/05/2018 15:23:56.9986	8.6287977E-003	2.0552552E-003	6.7280006E+001	1.2619504E+000	1.000000000000000E+000	11	2.0731414E-002	1.2803420E-004	6.1176610E-003	8.4581465E-004	6.1758547E-003	7.8716879E+000	1.2619506E+003	9.1275137E+003	9.2143379E+003	-8.2128311E+001	0.0000000E+000	0.0000000E+000	0.0000000E+000	8.2128311E+001	0.0000000E+000	0.0000000E+000	0.0000000E+000	-8.2128311E+001	0.0000000E+000	0.0000000E+000	0.0000000E+000	-7.8716879E+000	0.0000000E+000	0.0000000E+000	0.0000000E+000	7.8716879E+000	7.2328625E+000	8.2128311E+001
7.9821213E+001	1.6363867E+002	2.6018785E+001	1.6569427E+002	-9.0344830E+000	09/05/2018 15:23:58.6902	8.6195190E-003	2.0465017E-003	7.6632820E+001	1.8896172E+000	1.000000000000000E+000	11	2.0728979E-002	1.2510378E-004	5.9603387E-003	9.4770244E-004	6.0352115E-003	9.0344830E+000	1.8896176E+003	1.1884277E+004	1.2033565E+004	-8.0965515E+001	0.0000000E+000	0.0000000E+000	0.0000000E+000	8.0965515E+001	0.0000000E+000	0.0000000E+000	0.0000000E+000	-8.0965515E+001	0.0000000E+000	0.0000000E+000	0.0000000E+000	-9.0344830E+000	0.0000000E+000	0.0000000E+000	0.0000000E+000	9.0344830E+000	6.2892509E+000	8.0965515E+001
