EC-Lab ASCII FILE
Nb header lines : 66                          

Potentio Electrochemical Impedance Spectroscopy

Run on channel : 4 (SN 13229)
User : 
CE vs. WE compliance from -10 V to 10 V
Electrode connection : standard
Potential control : Ewe
Ewe ctrl range : min = -1.00 V, max = 1.00 V
Safety Limits :
	Do not start on E overload
Acquisition started on : 09/05/2018 15:23:22.000
Loaded Setting File : NONE
Saved on :
	File : RM_stacked second run D12_2_C04.mpr
	Directory : D:\Robert\Stacked cells\Second run 3% and 12% PVDF electrodes 12%compressed\
	Host : 10.5.5.6
Device : VMP3 (SN 0628)
Address : 10.5.5.5
EC-Lab for windows v11.17 (software)
Internet server v11.16 (firmware)
Command interpretor v11.16 (firmware)
Electrode material : 
Initial state : 
Electrolyte : 
Comments : 
Electrode surface area : 0.001 cm²
Characteristic mass : 0.001 g
Equivalent Weight : 0.000 g/eq.
Density : 0.000 g/cm3
Volume (V) : 0.000 m³
Text export
   Mode : Standard
   Time format : Elapsed
Cycle Definition : Charge/Discharge alternance
Mode                Single sine         
E (V)               0.0000              
vs.                 Eoc                 
tE (h:m:s)          0:00:3.0000         
record              1                   
dI                  0.000               
unit dI             mA                  
dt (s)              60.000              
fi                  200.000             
unit fi             kHz                 
ff                  10.000              
unit ff             mHz                 
Nd                  8                   
Points              per decade          
spacing             Logarithmic         
Va (mV)             20.0                
pw                  3.00                
Na                  5                   
corr                0                   
E range min (V)     -1.000              
E range max (V)     1.000               
I Range             Auto                
Bandwidth           5                   
nc cycles           0                   
goto Ns'            0                   
nr cycles           0                   
inc. cycle          0                   

freq/Hz	Re(Z)/Ohm	-Im(Z)/Ohm	|Z|/Ohm	Phase(Z)/deg	time/s	<Ewe>/V	<I>/mA	Cs/µF	Cp/µF	cycle number	I Range	|Ewe|/V	|I|/A	Re(Y)/Ohm-1	Im(Y)/Ohm-1	|Y|/Ohm-1	Phase(Y)/deg	Re(C)/nF	Im(C)/nF	|C|/nF	Phase(C)/deg	Re(M)	Im(M)	|M|	Phase(M)/deg	Re(Permittivity)	Im(Permittivity)	|Permittivity|	Phase(Permittivity)/deg	Re(Resistivity)/Ohm.cm	Im(Resistivity)/Ohm.cm	|Resistivity|/Ohm.cm	Phase(Resistivity)/deg	Re(Conductivity)/mS/cm	Im(Conductivity)/mS/cm	|Conductivity|/mS/cm	Phase(Conductivity)/deg	Tan(Delta)	Loss Angle(Delta)/deg	
2.0001948E+005	1.3844139E+002	9.3180126E-001	1.3844453E+002	-3.8563231E-001	09/05/2018 15:23:27.3311	2.4687161E-003	-2.8869992E-003	8.5393447E-001	3.8682942E-005	1.000000000000000E+000	11	1.8555762E-002	1.3403030E-004	7.2229458E-003	4.8615155E-005	7.2231092E-003	3.8563231E-001	3.8683251E-002	5.7472773E+000	5.7474074E+000	-8.9614365E+001	0.0000000E+000	0.0000000E+000	0.0000000E+000	8.9614365E+001	0.0000000E+000	0.0000000E+000	0.0000000E+000	-8.9614365E+001	0.0000000E+000	0.0000000E+000	0.0000000E+000	-3.8563231E-001	0.0000000E+000	0.0000000E+000	0.0000000E+000	3.8563231E-001	1.4857394E+002	8.9614365E+001
1.4967770E+005	1.3814601E+002	1.2669666E+000	1.3815182E+002	-5.2545708E-001	09/05/2018 15:23:28.3961	3.1135676E-003	1.7636673E-003	8.3926255E-001	7.0585411E-005	1.000000000000000E+000	11	2.0565160E-002	1.4885912E-004	7.2381087E-003	6.6382243E-005	7.2384132E-003	5.2545708E-001	7.0585698E-002	7.6964083E+000	7.6967320E+000	-8.9474541E+001	0.0000000E+000	0.0000000E+000	0.0000000E+000	8.9474541E+001	0.0000000E+000	0.0000000E+000	0.0000000E+000	-8.9474541E+001	0.0000000E+000	0.0000000E+000	0.0000000E+000	-5.2545708E-001	0.0000000E+000	0.0000000E+000	0.0000000E+000	5.2545708E-001	1.0903683E+002	8.9474541E+001
1.1201170E+005	1.3807504E+002	1.5535249E+000	1.3808379E+002	-6.4462525E-001	09/05/2018 15:23:29.4611	3.1239698E-003	1.8017126E-003	9.1461545E-001	1.1576828E-004	1.000000000000000E+000	11	2.0781623E-002	1.5050010E-004	7.2415215E-003	8.1476588E-005	7.2419797E-003	6.4462525E-001	1.1576784E-001	1.0289317E+001	1.0289968E+001	-8.9355377E+001	0.0000000E+000	0.0000000E+000	0.0000000E+000	8.9355377E+001	0.0000000E+000	0.0000000E+000	0.0000000E+000	-8.9355377E+001	0.0000000E+000	0.0000000E+000	0.0000000E+000	-6.4462525E-001	0.0000000E+000	0.0000000E+000	0.0000000E+000	6.4462525E-001	8.8878555E+001	8.9355377E+001
8.3828102E+004	1.3827464E+002	1.8485812E+000	1.3828700E+002	-7.6593643E-001	09/05/2018 15:23:30.5251	3.1431683E-003	1.7769085E-003	1.0270509E+000	1.8352967E-004	1.000000000000000E+000	11	2.0703122E-002	1.4971127E-004	7.2306911E-003	9.6666452E-005	7.2313375E-003	7.6593643E-001	1.8353000E-001	1.3728097E+001	1.3729323E+001	-8.9234062E+001	0.0000000E+000	0.0000000E+000	0.0000000E+000	8.9234062E+001	0.0000000E+000	0.0000000E+000	0.0000000E+000	-8.9234062E+001	0.0000000E+000	0.0000000E+000	0.0000000E+000	-7.6593643E-001	0.0000000E+000	0.0000000E+000	0.0000000E+000	7.6593643E-001	7.4800415E+001	8.9234062E+001
6.2734359E+004	1.3853670E+002	2.0372036E+000	1.3855168E+002	-8.4248257E-001	09/05/2018 15:23:31.5901	3.1490885E-003	1.6879495E-003	1.2453179E+000	2.6923127E-004	1.000000000000000E+000	11	2.0592891E-002	1.4862967E-004	7.2167427E-003	1.0612332E-004	7.2175232E-003	8.4248257E-001	2.6923156E-001	1.8308632E+001	1.8310612E+001	-8.9157516E+001	0.0000000E+000	0.0000000E+000	0.0000000E+000	8.9157516E+001	0.0000000E+000	0.0000000E+000	0.0000000E+000	-8.9157516E+001	0.0000000E+000	0.0000000E+000	0.0000000E+000	-8.4248257E-001	0.0000000E+000	0.0000000E+000	0.0000000E+000	8.4248257E-001	6.8003365E+001	8.9157516E+001
4.6953109E+004	1.3890150E+002	2.1748500E+000	1.3891853E+002	-8.9703518E-001	09/05/2018 15:23:32.6541	3.1496489E-003	1.7420336E-003	1.5585706E+000	3.8200116E-004	1.000000000000000E+000	11	2.0544104E-002	1.4788599E-004	7.1975812E-003	1.1269611E-004	7.1984637E-003	8.9703518E-001	3.8200054E-001	2.4397333E+001	2.4400324E+001	-8.9102966E+001	0.0000000E+000	0.0000000E+000	0.0000000E+000	8.9102966E+001	0.0000000E+000	0.0000000E+000	0.0000000E+000	-8.9102966E+001	0.0000000E+000	0.0000000E+000	0.0000000E+000	-8.9703518E-001	0.0000000E+000	0.0000000E+000	0.0000000E+000	8.9703518E-001	6.3867165E+001	8.9102966E+001
3.5136707E+004	1.3930464E+002	2.2501166E+000	1.3932281E+002	-9.2538893E-001	09/05/2018 15:23:33.7191	3.1517218E-003	1.7069723E-003	2.0130477E+000	5.2507292E-004	1.000000000000000E+000	11	2.0373253E-002	1.4623055E-004	7.1766395E-003	1.1592059E-004	7.1775755E-003	9.2538893E-001	5.2507472E-001	3.2507244E+001	3.2511486E+001	-8.9074608E+001	0.0000000E+000	0.0000000E+000	0.0000000E+000	8.9074608E+001	0.0000000E+000	0.0000000E+000	0.0000000E+000	-8.9074608E+001	0.0000000E+000	0.0000000E+000	0.0000000E+000	-9.2538893E-001	0.0000000E+000	0.0000000E+000	0.0000000E+000	9.2538893E-001	6.1909966E+001	8.9074608E+001
2.6298820E+004	1.3973882E+002	2.3387871E+000	1.3975839E+002	-9.5886111E-001	09/05/2018 15:23:34.7841	3.1502277E-003	1.6668754E-003	2.5875764E+000	7.2463410E-004	1.000000000000000E+000	11	2.0329257E-002	1.4546001E-004	7.1542035E-003	1.1973880E-004	7.1552056E-003	9.5886111E-001	7.2463495E-001	4.3295734E+001	4.3301800E+001	-8.9041138E+001	0.0000000E+000	0.0000000E+000	0.0000000E+000	8.9041138E+001	0.0000000E+000	0.0000000E+000	0.0000000E+000	-8.9041138E+001	0.0000000E+000	0.0000000E+000	0.0000000E+000	-9.5886111E-001	0.0000000E+000	0.0000000E+000	0.0000000E+000	9.5886111E-001	5.9748413E+001	8.9041138E+001
1.9677732E+004	1.4013171E+002	2.4099491E+000	1.4015244E+002	-9.8526084E-001	09/05/2018 15:23:35.8491	3.1522634E-003	1.6946633E-003	3.3561182E+000	9.9231978E-004	1.000000000000000E+000	11	2.0186845E-002	1.4403492E-004	7.1340334E-003	1.2268925E-004	7.1350881E-003	9.8526084E-001	9.9231887E-001	5.7700584E+001	5.7709118E+001	-8.9014740E+001	0.0000000E+000	0.0000000E+000	0.0000000E+000	8.9014740E+001	0.0000000E+000	0.0000000E+000	0.0000000E+000	-8.9014740E+001	0.0000000E+000	0.0000000E+000	0.0000000E+000	-9.8526084E-001	0.0000000E+000	0.0000000E+000	0.0000000E+000	9.8526084E-001	5.8147167E+001	8.9014740E+001
1.4726557E+004	1.4049248E+002	2.5144210E+000	1.4051497E+002	-1.0253242E+000	09/05/2018 15:23:36.7881	3.1426267E-003	1.6597887E-003	4.2981434E+000	1.3762956E-003	1.000000000000000E+000	11	2.1272294E-002	1.5138810E-004	7.1155401E-003	1.2734820E-004	7.1166796E-003	1.0253242E+000	1.3762926E+000	7.6900078E+001	7.6912392E+001	-8.8974678E+001	0.0000000E+000	0.0000000E+000	0.0000000E+000	8.8974678E+001	0.0000000E+000	0.0000000E+000	0.0000000E+000	-8.8974678E+001	0.0000000E+000	0.0000000E+000	0.0000000E+000	-1.0253242E+000	0.0000000E+000	0.0000000E+000	0.0000000E+000	1.0253242E+000	5.5874683E+001	8.8974678E+001
1.1025388E+004	1.4086601E+002	2.6482315E+000	1.4089090E+002	-1.0770137E+000	09/05/2018 15:23:37.7261	3.1576233E-003	1.6795576E-003	5.4509263E+000	1.9258228E-003	1.000000000000000E+000	11	2.1961769E-002	1.5587785E-004	7.0964363E-003	1.3341052E-004	7.0976904E-003	1.0770137E+000	1.9258182E+000	1.0243930E+002	1.0245740E+002	-8.8922989E+001	0.0000000E+000	0.0000000E+000	0.0000000E+000	8.8922989E+001	0.0000000E+000	0.0000000E+000	0.0000000E+000	-8.8922989E+001	0.0000000E+000	0.0000000E+000	0.0000000E+000	-1.0770137E+000	0.0000000E+000	0.0000000E+000	0.0000000E+000	1.0770137E+000	5.3192486E+001	8.8922989E+001
8.3251924E+003	1.4120976E+002	2.8689950E+000	1.4123891E+002	-1.1639328E+000	09/05/2018 15:23:38.9616	3.1700800E-003	1.7625481E-003	6.6634030E+000	2.7494570E-003	1.000000000000000E+000	11	2.0274773E-002	1.4354949E-004	7.0787412E-003	1.4382058E-004	7.0802020E-003	1.1639328E+000	2.7494569E+000	1.3532620E+002	1.3535413E+002	-8.8836067E+001	0.0000000E+000	0.0000000E+000	0.0000000E+000	8.8836067E+001	0.0000000E+000	0.0000000E+000	0.0000000E+000	-8.8836067E+001	0.0000000E+000	0.0000000E+000	0.0000000E+000	-1.1639328E+000	0.0000000E+000	0.0000000E+000	0.0000000E+000	1.1639328E+000	4.9219246E+001	8.8836067E+001
6.1954932E+003	1.4162108E+002	3.1148705E+000	1.4165533E+002	-1.2599831E+000	09/05/2018 15:23:40.3768	3.1683245E-003	1.7284192E-003	8.2471571E+000	3.9876625E-003	1.000000000000000E+000	11	2.0502349E-002	1.4473405E-004	7.0576812E-003	1.5522946E-004	7.0593883E-003	1.2599831E+000	3.9876502E+000	1.8130353E+002	1.8134738E+002	-8.8740021E+001	0.0000000E+000	0.0000000E+000	0.0000000E+000	8.8740021E+001	0.0000000E+000	0.0000000E+000	0.0000000E+000	-8.8740021E+001	0.0000000E+000	0.0000000E+000	0.0000000E+000	-1.2599831E+000	0.0000000E+000	0.0000000E+000	0.0000000E+000	1.2599831E+000	4.5466122E+001	8.8740021E+001
4.6214780E+003	1.4210258E+002	3.5269063E+000	1.4214635E+002	-1.4217571E+000	09/05/2018 15:23:42.0657	3.1714060E-003	1.7131265E-003	9.7643948E+000	6.0112076E-003	1.000000000000000E+000	11	2.0625548E-002	1.4510080E-004	7.0328373E-003	1.7455107E-004	7.0350030E-003	1.4217571E+000	6.0112224E+000	2.4219759E+002	2.4227217E+002	-8.8578239E+001	0.0000000E+000	0.0000000E+000	0.0000000E+000	8.8578239E+001	0.0000000E+000	0.0000000E+000	0.0000000E+000	-8.8578239E+001	0.0000000E+000	0.0000000E+000	0.0000000E+000	-1.4217571E+000	0.0000000E+000	0.0000000E+000	0.0000000E+000	1.4217571E+000	4.0291000E+001	8.8578239E+001
3.4561052E+003	1.4262444E+002	4.0017600E+000	1.4268057E+002	-1.6071846E+000	09/05/2018 15:23:43.7527	3.1643652E-003	1.6901875E-003	1.1507531E+001	9.0522077E-003	1.000000000000000E+000	11	2.0691453E-002	1.4501941E-004	7.0059053E-003	1.9657185E-004	7.0086624E-003	1.6071846E+000	9.0522118E+000	3.2262457E+002	3.2275156E+002	-8.8392815E+001	0.0000000E+000	0.0000000E+000	0.0000000E+000	8.8392815E+001	0.0000000E+000	0.0000000E+000	0.0000000E+000	-8.8392815E+001	0.0000000E+000	0.0000000E+000	0.0000000E+000	-1.6071846E+000	0.0000000E+000	0.0000000E+000	0.0000000E+000	1.6071846E+000	3.5640427E+001	8.8392815E+001
2.5858269E+003	1.4326758E+002	4.5309854E+000	1.4333920E+002	-1.8114346E+000	09/05/2018 15:23:45.4407	3.1716675E-003	1.7148050E-003	1.3584011E+001	1.3573235E-002	1.000000000000000E+000	11	2.0734707E-002	1.4465483E-004	6.9729723E-003	2.2052748E-004	6.9764587E-003	1.8114346E+000	1.3573215E+001	4.2917914E+002	4.2939371E+002	-8.8188568E+001	0.0000000E+000	0.0000000E+000	0.0000000E+000	8.8188568E+001	0.0000000E+000	0.0000000E+000	0.0000000E+000	-8.8188568E+001	0.0000000E+000	0.0000000E+000	0.0000000E+000	-1.8114346E+000	0.0000000E+000	0.0000000E+000	0.0000000E+000	1.8114346E+000	3.1619518E+001	8.8188568E+001
1.9356189E+003	1.4386711E+002	5.1701741E+000	1.4395998E+002	-2.0581615E+000	09/05/2018 15:23:47.1287	3.1649442E-003	1.7293517E-003	1.5903588E+001	2.0512657E-002	1.000000000000000E+000	11	2.0746972E-002	1.4411626E-004	6.9418941E-003	2.4947189E-004	6.9463751E-003	2.0581615E+000	2.0512630E+001	5.7079248E+002	5.7116095E+002	-8.7941841E+001	0.0000000E+000	0.0000000E+000	0.0000000E+000	8.7941841E+001	0.0000000E+000	0.0000000E+000	0.0000000E+000	-8.7941841E+001	0.0000000E+000	0.0000000E+000	0.0000000E+000	-2.0581615E+000	0.0000000E+000	0.0000000E+000	0.0000000E+000	2.0581615E+000	2.7826357E+001	8.7941841E+001
1.4486094E+003	1.4470311E+002	5.9558287E+000	1.4482562E+002	-2.3569040E+000	09/05/2018 15:23:48.8179	3.1677454E-003	1.7226378E-003	1.8447039E+001	3.1197533E-002	1.000000000000000E+000	11	2.0759538E-002	1.4334160E-004	6.8990141E-003	2.8395621E-004	6.9048554E-003	2.3569040E+000	3.1197519E+001	7.5797675E+002	7.5861853E+002	-8.7643097E+001	0.0000000E+000	0.0000000E+000	0.0000000E+000	8.7643097E+001	0.0000000E+000	0.0000000E+000	0.0000000E+000	-8.7643097E+001	0.0000000E+000	0.0000000E+000	0.0000000E+000	-2.3569040E+000	0.0000000E+000	0.0000000E+000	0.0000000E+000	2.3569040E+000	2.4296049E+001	8.7643097E+001
1.0839595E+003	1.4561987E+002	6.8399754E+000	1.4578043E+002	-2.6892889E+000	09/05/2018 15:23:50.5069	3.1675962E-003	1.7334548E-003	2.1466070E+001	4.7256678E-002	1.000000000000000E+000	11	2.0768972E-002	1.4246750E-004	6.8520764E-003	3.2185193E-004	6.8596313E-003	2.6892889E+000	4.7256618E+001	1.0060726E+003	1.0071818E+003	-8.7310715E+001	0.0000000E+000	0.0000000E+000	0.0000000E+000	8.7310715E+001	0.0000000E+000	0.0000000E+000	0.0000000E+000	-8.7310715E+001	0.0000000E+000	0.0000000E+000	0.0000000E+000	-2.6892889E+000	0.0000000E+000	0.0000000E+000	0.0000000E+000	2.6892889E+000	2.1289532E+001	8.7310715E+001
8.1129767E+002	1.4663391E+002	7.8659167E+000	1.4684474E+002	-3.0705876E+000	09/05/2018 15:23:52.1914	3.1670546E-003	1.7162969E-003	2.4939661E+001	7.1560346E-002	1.000000000000000E+000	11	2.0767944E-002	1.4142791E-004	6.8001365E-003	3.6478130E-004	6.8099136E-003	3.0705876E+000	7.1560341E+001	1.3340052E+003	1.3359232E+003	-8.6929413E+001	0.0000000E+000	0.0000000E+000	0.0000000E+000	8.6929413E+001	0.0000000E+000	0.0000000E+000	0.0000000E+000	-8.6929413E+001	0.0000000E+000	0.0000000E+000	0.0000000E+000	-3.0705876E+000	0.0000000E+000	0.0000000E+000	0.0000000E+000	3.0705876E+000	1.8641682E+001	8.6929413E+001
6.0752716E+002	1.4778909E+002	9.0980949E+000	1.4806888E+002	-3.5227592E+000	09/05/2018 15:23:53.8709	3.1589679E-003	1.6776921E-003	2.8794128E+001	1.0871196E-001	1.000000000000000E+000	11	2.0768600E-002	1.4026310E-004	6.7408527E-003	4.1497592E-004	6.7536137E-003	3.5227592E+000	1.0871194E+002	1.7659128E+003	1.7692559E+003	-8.6477242E+001	0.0000000E+000	0.0000000E+000	0.0000000E+000	8.6477242E+001	0.0000000E+000	0.0000000E+000	0.0000000E+000	-8.6477242E+001	0.0000000E+000	0.0000000E+000	0.0000000E+000	-3.5227592E+000	0.0000000E+000	0.0000000E+000	0.0000000E+000	3.5227592E+000	1.6243959E+001	8.6477242E+001
4.5456351E+002	1.4919560E+002	1.0521425E+001	1.4956613E+002	-4.0338783E+000	09/05/2018 15:23:55.5600	3.1706777E-003	1.7067854E-003	3.3277523E+001	1.6467726E-001	1.000000000000000E+000	11	2.0772014E-002	1.3888181E-004	6.6694422E-003	4.7033583E-004	6.6860057E-003	4.0338783E+000	1.6467711E+002	2.3351516E+003	2.3409509E+003	-8.5966125E+001	0.0000000E+000	0.0000000E+000	0.0000000E+000	8.5966125E+001	0.0000000E+000	0.0000000E+000	0.0000000E+000	-8.5966125E+001	0.0000000E+000	0.0000000E+000	0.0000000E+000	-4.0338783E+000	0.0000000E+000	0.0000000E+000	0.0000000E+000	4.0338783E+000	1.4180170E+001	8.5966125E+001
3.4010876E+002	1.5072484E+002	1.2224106E+001	1.5121973E+002	-4.6366615E+000	09/05/2018 15:23:57.2477	3.1735911E-003	1.7584449E-003	3.8281170E+001	2.5015116E-001	1.000000000000000E+000	11	2.0769790E-002	1.3734841E-004	6.5912521E-003	5.3456455E-004	6.6128937E-003	4.6366615E+000	2.5015096E+002	3.0843970E+003	3.0945242E+003	-8.5363342E+001	0.0000000E+000	0.0000000E+000	0.0000000E+000	8.5363342E+001	0.0000000E+000	0.0000000E+000	0.0000000E+000	-8.5363342E+001	0.0000000E+000	0.0000000E+000	0.0000000E+000	-4.6366615E+000	0.0000000E+000	0.0000000E+000	0.0000000E+000	4.6366615E+000	1.2330132E+001	8.5363342E+001
2.5443001E+002	1.5254358E+002	1.4265950E+001	1.5320921E+002	-5.3427892E+000	09/05/2018 15:23:58.9382	3.1641412E-003	1.7079045E-003	4.3848133E+001	3.8017428E-001	1.000000000000000E+000	11	2.0771198E-002	1.3557408E-004	6.4986655E-003	6.0775835E-004	6.5270225E-003	5.3427892E+000	3.8017426E+002	4.0651445E+003	4.0828828E+003	-8.4657211E+001	0.0000000E+000	0.0000000E+000	0.0000000E+000	8.4657211E+001	0.0000000E+000	0.0000000E+000	0.0000000E+000	-8.4657211E+001	0.0000000E+000	0.0000000E+000	0.0000000E+000	-5.3427892E+000	0.0000000E+000	0.0000000E+000	0.0000000E+000	5.3427892E+000	1.0692844E+001	8.4657211E+001
1.9054874E+002	1.5467447E+002	1.6605871E+001	1.5556332E+002	-6.1278105E+000	09/05/2018 15:24:00.6192	3.1644399E-003	1.7347599E-003	5.0298195E+001	5.7314074E-001	1.000000000000000E+000	11	2.0772127E-002	1.3352843E-004	6.3915211E-003	6.8619451E-004	6.4282506E-003	6.1278105E+000	5.7314044E+002	5.3384878E+003	5.3691660E+003	-8.3872192E+001	0.0000000E+000	0.0000000E+000	0.0000000E+000	8.3872192E+001	0.0000000E+000	0.0000000E+000	0.0000000E+000	-8.3872192E+001	0.0000000E+000	0.0000000E+000	0.0000000E+000	-6.1278105E+000	0.0000000E+000	0.0000000E+000	0.0000000E+000	6.1278105E+000	9.3144445E+000	8.3872192E+001
1.4249214E+002	1.5704663E+002	1.9390442E+001	1.5823917E+002	-7.0386481E+000	09/05/2018 15:24:02.3333	3.1646828E-003	1.7110748E-003	5.7602524E+001	8.6494595E-001	1.000000000000000E+000	11	2.0766959E-002	1.3123779E-004	6.2719220E-003	7.7439001E-004	6.3195480E-003	7.0386481E+000	8.6494617E+002	7.0053501E+003	7.0585454E+003	-8.2961349E+001	0.0000000E+000	0.0000000E+000	0.0000000E+000	8.2961349E+001	0.0000000E+000	0.0000000E+000	0.0000000E+000	-8.2961349E+001	0.0000000E+000	0.0000000E+000	0.0000000E+000	-7.0386481E+000	0.0000000E+000	0.0000000E+000	0.0000000E+000	7.0386481E+000	8.0991774E+000	8.2961349E+001
1.0667264E+002	1.5994424E+002	2.2714294E+001	1.6154907E+002	-8.0827446E+000	09/05/2018 15:24:03.9956	3.1613770E-003	1.6499037E-003	6.5685249E+001	1.2985462E+000	1.000000000000000E+000	11	2.0769110E-002	1.2856224E-004	6.1285775E-003	8.7034277E-004	6.1900695E-003	8.0827446E+000	1.2985469E+003	9.1438018E+003	9.2355469E+003	-8.1917252E+001	0.0000000E+000	0.0000000E+000	0.0000000E+000	8.1917252E+001	0.0000000E+000	0.0000000E+000	0.0000000E+000	-8.1917252E+001	0.0000000E+000	0.0000000E+000	0.0000000E+000	-8.0827446E+000	0.0000000E+000	0.0000000E+000	0.0000000E+000	8.0827446E+000	7.0415678E+000	8.1917252E+001
7.9821213E+001	1.6324364E+002	2.6667641E+001	1.6540752E+002	-9.2779408E+000	09/05/2018 15:24:05.6862	3.1642718E-003	1.6907465E-003	7.4768250E+001	1.9434614E+000	1.000000000000000E+000	11	2.0768652E-002	1.2556050E-004	5.9665842E-003	9.7470701E-004	6.0456744E-003	9.2779408E+000	1.9434608E+003	1.1896729E+004	1.2054427E+004	-8.0722061E+001	0.0000000E+000	0.0000000E+000	0.0000000E+000	8.0722061E+001	0.0000000E+000	0.0000000E+000	0.0000000E+000	-8.0722061E+001	0.0000000E+000	0.0000000E+000	0.0000000E+000	-9.2779408E+000	0.0000000E+000	0.0000000E+000	0.0000000E+000	9.2779408E+000	6.1214128E+000	8.0722061E+001
