EC-Lab ASCII FILE
Nb header lines : 66                          

Potentio Electrochemical Impedance Spectroscopy

Run on channel : 6 (SN 13224)
User : 
CE vs. WE compliance from -10 V to 10 V
Electrode connection : standard
Potential control : Ewe
Ewe ctrl range : min = -1.00 V, max = 1.00 V
Safety Limits :
	Do not start on E overload
Acquisition started on : 09/05/2018 13:41:02.000
Loaded Setting File : NONE
Saved on :
	File : RM_stacked second run S12_2_C06.mpr
	Directory : D:\Robert\Stacked cells\Second run 3% and 12% PVDF electrodes 12%compressed\
	Host : 10.5.5.6
Device : VMP3 (SN 0628)
Address : 10.5.5.5
EC-Lab for windows v11.17 (software)
Internet server v11.16 (firmware)
Command interpretor v11.16 (firmware)
Electrode material : 
Initial state : 
Electrolyte : 
Comments : 
Electrode surface area : 0.001 cm²
Characteristic mass : 0.001 g
Equivalent Weight : 0.000 g/eq.
Density : 0.000 g/cm3
Volume (V) : 0.000 m³
Text export
   Mode : Standard
   Time format : Elapsed
Cycle Definition : Charge/Discharge alternance
Mode                Single sine         
E (V)               0.0000              
vs.                 Eoc                 
tE (h:m:s)          0:00:3.0000         
record              1                   
dI                  0.000               
unit dI             mA                  
dt (s)              60.000              
fi                  200.000             
unit fi             kHz                 
ff                  10.000              
unit ff             mHz                 
Nd                  8                   
Points              per decade          
spacing             Logarithmic         
Va (mV)             20.0                
pw                  3.00                
Na                  5                   
corr                0                   
E range min (V)     -1.000              
E range max (V)     1.000               
I Range             Auto                
Bandwidth           5                   
nc cycles           0                   
goto Ns'            0                   
nr cycles           0                   
inc. cycle          0                   

freq/Hz	Re(Z)/Ohm	-Im(Z)/Ohm	|Z|/Ohm	Phase(Z)/deg	time/s	<Ewe>/V	<I>/mA	Cs/µF	Cp/µF	cycle number	I Range	|Ewe|/V	|I|/A	Re(Y)/Ohm-1	Im(Y)/Ohm-1	|Y|/Ohm-1	Phase(Y)/deg	Re(C)/nF	Im(C)/nF	|C|/nF	Phase(C)/deg	Re(M)	Im(M)	|M|	Phase(M)/deg	Re(Permittivity)	Im(Permittivity)	|Permittivity|	Phase(Permittivity)/deg	Re(Resistivity)/Ohm.cm	Im(Resistivity)/Ohm.cm	|Resistivity|/Ohm.cm	Phase(Resistivity)/deg	Re(Conductivity)/mS/cm	Im(Conductivity)/mS/cm	|Conductivity|/mS/cm	Phase(Conductivity)/deg	Tan(Delta)	Loss Angle(Delta)/deg	
2.0001948E+005	1.3636641E+002	-3.5031411E-001	1.3636685E+002	1.4718784E-001	09/05/2018 13:41:07.4771	-4.4241892E-003	3.9171823E-003	-2.2713821E+000	-1.4989523E-005	1.000000000000000E+000	11	2.0898921E-002	1.5325514E-004	7.3331362E-003	-1.8838227E-005	7.3331604E-003	-1.4718784E-001	-1.4989365E-002	5.8349562E+000	5.8349752E+000	-9.0147186E+001	0.0000000E+000	0.0000000E+000	0.0000000E+000	9.0147186E+001	0.0000000E+000	0.0000000E+000	0.0000000E+000	-9.0147186E+001	0.0000000E+000	0.0000000E+000	0.0000000E+000	1.4718784E-001	0.0000000E+000	0.0000000E+000	0.0000000E+000	-1.4718784E-001	3.8926895E+002	8.9852814E+001
1.4967770E+005	1.3596103E+002	-8.2770288E-003	1.3596103E+002	3.4880496E-003	09/05/2018 13:41:08.5421	-4.5377812E-003	3.0585693E-003	-1.2846611E+002	-4.7611141E-007	1.000000000000000E+000	11	2.0800559E-002	1.5298913E-004	7.3550488E-003	-4.4776030E-007	7.3550488E-003	-3.4880496E-003	-4.7591809E-004	7.8207531E+000	7.8207531E+000	-9.0003487E+001	0.0000000E+000	0.0000000E+000	0.0000000E+000	9.0003487E+001	0.0000000E+000	0.0000000E+000	0.0000000E+000	-9.0003487E+001	0.0000000E+000	0.0000000E+000	0.0000000E+000	3.4880496E-003	0.0000000E+000	0.0000000E+000	0.0000000E+000	-3.4880496E-003	1.6426309E+004	8.9996513E+001
1.1201170E+005	1.3576187E+002	2.6647198E-001	1.3576213E+002	-1.1245941E-001	09/05/2018 13:41:09.6061	-4.5736372E-003	2.7206438E-003	5.3321848E+000	2.0542393E-005	1.000000000000000E+000	11	2.0752005E-002	1.5285562E-004	7.3658102E-003	1.4457535E-005	7.3658242E-003	1.1245941E-001	2.0542001E-002	1.0465917E+001	1.0465937E+001	-8.9887543E+001	0.0000000E+000	0.0000000E+000	0.0000000E+000	8.9887543E+001	0.0000000E+000	0.0000000E+000	0.0000000E+000	-8.9887543E+001	0.0000000E+000	0.0000000E+000	0.0000000E+000	-1.1245941E-001	0.0000000E+000	0.0000000E+000	0.0000000E+000	1.1245941E-001	5.0947897E+002	8.9887543E+001
8.3828102E+004	1.3564659E+002	6.3822883E-001	1.3564809E+002	-2.6957956E-001	09/05/2018 13:41:10.6711	-4.5719035E-003	2.4808138E-003	2.9747746E+000	6.5853608E-005	1.000000000000000E+000	11	2.0762525E-002	1.5306169E-004	7.3719355E-003	3.4685589E-005	7.3720170E-003	2.6957956E-001	6.5852985E-002	1.3996261E+001	1.3996415E+001	-8.9730423E+001	0.0000000E+000	0.0000000E+000	0.0000000E+000	8.9730423E+001	0.0000000E+000	0.0000000E+000	0.0000000E+000	-8.9730423E+001	0.0000000E+000	0.0000000E+000	0.0000000E+000	-2.6957956E-001	0.0000000E+000	0.0000000E+000	0.0000000E+000	2.6957956E-001	2.1253598E+002	8.9730423E+001
6.2734359E+004	1.3582768E+002	9.4142717E-001	1.3583095E+002	-3.9711303E-001	09/05/2018 13:41:11.7351	-4.5742341E-003	2.6896859E-003	2.6948087E+000	1.2945056E-004	1.000000000000000E+000	11	2.0679966E-002	1.5224781E-004	7.3619154E-003	5.1025738E-005	7.3620924E-003	3.9711303E-001	1.2944956E-001	1.8676929E+001	1.8677378E+001	-8.9602890E+001	0.0000000E+000	0.0000000E+000	0.0000000E+000	8.9602890E+001	0.0000000E+000	0.0000000E+000	0.0000000E+000	-8.9602890E+001	0.0000000E+000	0.0000000E+000	0.0000000E+000	-3.9711303E-001	0.0000000E+000	0.0000000E+000	0.0000000E+000	3.9711303E-001	1.4427849E+002	8.9602890E+001
4.6953109E+004	1.3585167E+002	1.1231527E+000	1.3585631E+002	-4.7368169E-001	09/05/2018 13:41:12.8001	-4.5882743E-003	2.5785360E-003	3.0179839E+000	2.0626947E-004	1.000000000000000E+000	11	2.0576349E-002	1.5145670E-004	7.3604668E-003	6.0852610E-005	7.3607182E-003	4.7368169E-001	2.0626813E-001	2.4949459E+001	2.4950312E+001	-8.9526321E+001	0.0000000E+000	0.0000000E+000	0.0000000E+000	8.9526321E+001	0.0000000E+000	0.0000000E+000	0.0000000E+000	-8.9526321E+001	0.0000000E+000	0.0000000E+000	0.0000000E+000	-4.7368169E-001	0.0000000E+000	0.0000000E+000	0.0000000E+000	4.7368169E-001	1.2095565E+002	8.9526321E+001
3.5136707E+004	1.3608810E+002	1.2732691E+000	1.3609406E+002	-5.3605580E-001	09/05/2018 13:41:13.8641	-4.5592799E-003	2.9412648E-003	3.5574510E+000	3.1138735E-004	1.000000000000000E+000	11	2.0416789E-002	1.5001970E-004	7.3475377E-003	6.8745117E-005	7.3478594E-003	5.3605580E-001	3.1138778E-001	3.3281349E+001	3.3282806E+001	-8.9463943E+001	0.0000000E+000	0.0000000E+000	0.0000000E+000	8.9463943E+001	0.0000000E+000	0.0000000E+000	0.0000000E+000	-8.9463943E+001	0.0000000E+000	0.0000000E+000	0.0000000E+000	-5.3605580E-001	0.0000000E+000	0.0000000E+000	0.0000000E+000	5.3605580E-001	1.0688087E+002	8.9463943E+001
2.6298820E+004	1.3624736E+002	1.4503582E+000	1.3625508E+002	-6.0989261E-001	09/05/2018 13:41:14.9281	-4.6066595E-003	2.5125174E-003	4.1726179E+000	4.7277415E-004	1.000000000000000E+000	11	2.0294733E-002	1.4894662E-004	7.3387600E-003	7.8121368E-005	7.3391758E-003	6.0989261E-001	4.7277504E-001	4.4412636E+001	4.4415154E+001	-8.9390106E+001	0.0000000E+000	0.0000000E+000	0.0000000E+000	8.9390106E+001	0.0000000E+000	0.0000000E+000	0.0000000E+000	-8.9390106E+001	0.0000000E+000	0.0000000E+000	0.0000000E+000	-6.0989261E-001	0.0000000E+000	0.0000000E+000	0.0000000E+000	6.0989261E-001	9.3940491E+001	8.9390106E+001
1.9677732E+004	1.3649060E+002	1.7029147E+000	1.3650122E+002	-7.1480942E-001	09/05/2018 13:41:15.9931	-4.5433748E-003	2.8521211E-003	4.7495470E+000	7.3920505E-004	1.000000000000000E+000	11	2.0308049E-002	1.4877559E-004	7.3253717E-003	9.1394453E-005	7.3259417E-003	7.1480942E-001	7.3920900E-001	5.9248142E+001	5.9252754E+001	-8.9285187E+001	0.0000000E+000	0.0000000E+000	0.0000000E+000	8.9285187E+001	0.0000000E+000	0.0000000E+000	0.0000000E+000	-8.9285187E+001	0.0000000E+000	0.0000000E+000	0.0000000E+000	-7.1480942E-001	0.0000000E+000	0.0000000E+000	0.0000000E+000	7.1480942E-001	8.0151169E+001	8.9285187E+001
1.4726557E+004	1.3670984E+002	1.9634112E+000	1.3672394E+002	-8.2281893E-001	09/05/2018 13:41:16.9321	-4.6277856E-003	2.2752986E-003	5.5043702E+000	1.1351181E-003	1.000000000000000E+000	11	2.1419212E-002	1.5666029E-004	7.3132538E-003	1.0503213E-004	7.3140082E-003	8.2281893E-001	1.1351233E+000	7.9036850E+001	7.9044998E+001	-8.9177177E+001	0.0000000E+000	0.0000000E+000	0.0000000E+000	8.9177177E+001	0.0000000E+000	0.0000000E+000	0.0000000E+000	-8.9177177E+001	0.0000000E+000	0.0000000E+000	0.0000000E+000	-8.2281893E-001	0.0000000E+000	0.0000000E+000	0.0000000E+000	8.2281893E-001	6.9628738E+001	8.9177177E+001
1.1025388E+004	1.3703984E+002	2.1959641E+000	1.3705743E+002	-9.1804475E-001	09/05/2018 13:41:17.9971	-4.5315721E-003	3.0304082E-003	6.5735660E+000	1.6875098E-003	1.000000000000000E+000	11	2.0181423E-002	1.4724792E-004	7.2952746E-003	1.1690149E-004	7.2962111E-003	9.1804475E-001	1.6875103E+000	1.0530959E+002	1.0532310E+002	-8.9081955E+001	0.0000000E+000	0.0000000E+000	0.0000000E+000	8.9081955E+001	0.0000000E+000	0.0000000E+000	0.0000000E+000	-8.9081955E+001	0.0000000E+000	0.0000000E+000	0.0000000E+000	-9.1804475E-001	0.0000000E+000	0.0000000E+000	0.0000000E+000	9.1804475E-001	6.2405319E+001	8.9081955E+001
8.3251924E+003	1.3741486E+002	2.4847612E+000	1.3743732E+002	-1.0359201E+000	09/05/2018 13:41:19.0896	-4.5025214E-003	3.2038467E-003	7.6938052E+000	2.5147868E-003	1.000000000000000E+000	11	2.0567315E-002	1.4964869E-004	7.2748549E-003	1.3154530E-004	7.2760442E-003	1.0359201E+000	2.5147846E+000	1.3907536E+002	1.3909810E+002	-8.8964081E+001	0.0000000E+000	0.0000000E+000	0.0000000E+000	8.8964081E+001	0.0000000E+000	0.0000000E+000	0.0000000E+000	-8.8964081E+001	0.0000000E+000	0.0000000E+000	0.0000000E+000	-1.0359201E+000	0.0000000E+000	0.0000000E+000	0.0000000E+000	1.0359201E+000	5.5303043E+001	8.8964081E+001
6.1954932E+003	1.3780412E+002	2.9316034E+000	1.3783530E+002	-1.2187093E+000	09/05/2018 13:41:20.5048	-4.5564831E-003	2.6874477E-003	8.7627230E+000	3.9639538E-003	1.000000000000000E+000	11	2.0830289E-002	1.5112449E-004	7.2533949E-003	1.5430654E-004	7.2550359E-003	1.2187093E+000	3.9639618E+000	1.8633119E+002	1.8637335E+002	-8.8781288E+001	0.0000000E+000	0.0000000E+000	0.0000000E+000	8.8781288E+001	0.0000000E+000	0.0000000E+000	0.0000000E+000	-8.8781288E+001	0.0000000E+000	0.0000000E+000	0.0000000E+000	-1.2187093E+000	0.0000000E+000	0.0000000E+000	0.0000000E+000	1.2187093E+000	4.7006401E+001	8.8781288E+001
4.6214780E+003	1.3814957E+002	3.1936224E+000	1.3818648E+002	-1.3242785E+000	09/05/2018 13:41:22.1937	-4.5543574E-003	2.6184455E-003	1.0783399E+001	5.7595917E-003	1.000000000000000E+000	11	2.0950546E-002	1.5161069E-004	7.2346651E-003	1.6724474E-004	7.2365981E-003	1.3242785E+000	5.7595978E+000	2.4914818E+002	2.4921474E+002	-8.8675720E+001	0.0000000E+000	0.0000000E+000	0.0000000E+000	8.8675720E+001	0.0000000E+000	0.0000000E+000	0.0000000E+000	-8.8675720E+001	0.0000000E+000	0.0000000E+000	0.0000000E+000	-1.3242785E+000	0.0000000E+000	0.0000000E+000	0.0000000E+000	1.3242785E+000	4.3257954E+001	8.8675720E+001
3.4561052E+003	1.3877675E+002	3.8359823E+000	1.3882976E+002	-1.5833318E+000	09/05/2018 13:41:23.8807	-4.5907730E-003	2.4849165E-003	1.2004846E+001	9.1652572E-003	1.000000000000000E+000	11	2.0993836E-002	1.5122000E-004	7.2003165E-003	1.9902676E-004	7.2030667E-003	1.5833318E+000	9.1652365E+000	3.3157727E+002	3.3170392E+002	-8.8416672E+001	0.0000000E+000	0.0000000E+000	0.0000000E+000	8.8416672E+001	0.0000000E+000	0.0000000E+000	0.0000000E+000	-8.8416672E+001	0.0000000E+000	0.0000000E+000	0.0000000E+000	-1.5833318E+000	0.0000000E+000	0.0000000E+000	0.0000000E+000	1.5833318E+000	3.6177631E+001	8.8416672E+001
2.5858269E+003	1.3923618E+002	4.3972917E+000	1.3930559E+002	-1.8088872E+000	09/05/2018 13:41:25.5677	-4.5412863E-003	2.7484309E-003	1.3997015E+001	1.3946617E-002	1.000000000000000E+000	11	2.1052249E-002	1.5112279E-004	7.1748858E-003	2.2659388E-004	7.1784630E-003	1.8088872E+000	1.3946590E+001	4.4160675E+002	4.4182693E+002	-8.8191116E+001	0.0000000E+000	0.0000000E+000	0.0000000E+000	8.8191116E+001	0.0000000E+000	0.0000000E+000	0.0000000E+000	-8.8191116E+001	0.0000000E+000	0.0000000E+000	0.0000000E+000	-1.8088872E+000	0.0000000E+000	0.0000000E+000	0.0000000E+000	1.8088872E+000	3.1664076E+001	8.8191116E+001
1.9356189E+003	1.4001164E+002	4.9969964E+000	1.4010078E+002	-2.0440109E+000	09/05/2018 13:41:27.2557	-4.5634005E-003	2.7823728E-003	1.6454748E+001	2.0932840E-002	1.000000000000000E+000	11	2.1066012E-002	1.5036327E-004	7.1331770E-003	2.5458209E-004	7.1377186E-003	2.0440109E+000	2.0932873E+001	5.8652069E+002	5.8689410E+002	-8.7955986E+001	0.0000000E+000	0.0000000E+000	0.0000000E+000	8.7955986E+001	0.0000000E+000	0.0000000E+000	0.0000000E+000	-8.7955986E+001	0.0000000E+000	0.0000000E+000	0.0000000E+000	-2.0440109E+000	0.0000000E+000	0.0000000E+000	0.0000000E+000	2.0440109E+000	2.8019159E+001	8.7955986E+001
1.4486094E+003	1.4080843E+002	5.6377325E+000	1.4092125E+002	-2.2928019E+000	09/05/2018 13:41:28.9449	-4.5192284E-003	2.9865825E-003	1.9487871E+001	3.1190358E-002	1.000000000000000E+000	11	2.1077342E-002	1.4956824E-004	7.0904810E-003	2.8389093E-004	7.0961621E-003	2.2928019E+000	3.1190342E+001	7.7901270E+002	7.7963684E+002	-8.7707199E+001	0.0000000E+000	0.0000000E+000	0.0000000E+000	8.7707199E+001	0.0000000E+000	0.0000000E+000	0.0000000E+000	-8.7707199E+001	0.0000000E+000	0.0000000E+000	0.0000000E+000	-2.2928019E+000	0.0000000E+000	0.0000000E+000	0.0000000E+000	2.2928019E+000	2.4976074E+001	8.7707199E+001
1.0839595E+003	1.4161169E+002	6.6429591E+000	1.4176743E+002	-2.6857576E+000	09/05/2018 13:41:30.6339	-4.5563709E-003	2.7036725E-003	2.2102709E+001	4.8530612E-002	1.000000000000000E+000	11	2.1087691E-002	1.4874850E-004	7.0460583E-003	3.3052830E-004	7.0538064E-003	2.6857576E+000	4.8530663E+001	1.0345543E+003	1.0356920E+003	-8.7314240E+001	0.0000000E+000	0.0000000E+000	0.0000000E+000	8.7314240E+001	0.0000000E+000	0.0000000E+000	0.0000000E+000	-8.7314240E+001	0.0000000E+000	0.0000000E+000	0.0000000E+000	-2.6857576E+000	0.0000000E+000	0.0000000E+000	0.0000000E+000	2.6857576E+000	2.1317562E+001	8.7314240E+001
8.1129767E+002	1.4268427E+002	7.6490817E+000	1.4288914E+002	-3.0686004E+000	09/05/2018 13:41:32.3204	-4.5170840E-003	2.9770713E-003	2.5646646E+001	7.3493801E-002	1.000000000000000E+000	11	2.1070151E-002	1.4745802E-004	6.9883978E-003	3.7463714E-004	6.9984323E-003	3.0686004E+000	7.3493881E+001	1.3709371E+003	1.3729056E+003	-8.6931396E+001	0.0000000E+000	0.0000000E+000	0.0000000E+000	8.6931396E+001	0.0000000E+000	0.0000000E+000	0.0000000E+000	-8.6931396E+001	0.0000000E+000	0.0000000E+000	0.0000000E+000	-3.0686004E+000	0.0000000E+000	0.0000000E+000	0.0000000E+000	3.0686004E+000	1.8653776E+001	8.6931396E+001
6.0752716E+002	1.4379024E+002	8.8215237E+000	1.4406058E+002	-3.5106931E+000	09/05/2018 13:41:34.0009	-4.5263697E-003	2.8157551E-003	2.9696882E+001	1.1135449E-001	1.000000000000000E+000	11	2.1081921E-002	1.4634067E-004	6.9284979E-003	4.2506299E-004	6.9415243E-003	3.5106931E+000	1.1135459E+002	1.8150706E+003	1.8184832E+003	-8.6489304E+001	0.0000000E+000	0.0000000E+000	0.0000000E+000	8.6489304E+001	0.0000000E+000	0.0000000E+000	0.0000000E+000	-8.6489304E+001	0.0000000E+000	0.0000000E+000	0.0000000E+000	-3.5106931E+000	0.0000000E+000	0.0000000E+000	0.0000000E+000	3.5106931E+000	1.6299932E+001	8.6489304E+001
4.5456351E+002	1.4502220E+002	1.0421627E+001	1.4539618E+002	-4.1103401E+000	09/05/2018 13:41:35.6900	-4.5073880E-003	2.9802418E-003	3.3596191E+001	1.7260569E-001	1.000000000000000E+000	11	2.1076597E-002	1.4495978E-004	6.8600695E-003	4.9298030E-004	6.8777599E-003	4.1103401E+000	1.7260555E+002	2.4018955E+003	2.4080894E+003	-8.5889664E+001	0.0000000E+000	0.0000000E+000	0.0000000E+000	8.5889664E+001	0.0000000E+000	0.0000000E+000	0.0000000E+000	-8.5889664E+001	0.0000000E+000	0.0000000E+000	0.0000000E+000	-4.1103401E+000	0.0000000E+000	0.0000000E+000	0.0000000E+000	4.1103401E+000	1.3915504E+001	8.5889664E+001
3.4010876E+002	1.4662907E+002	1.1907991E+001	1.4711182E+002	-4.6428962E+000	09/05/2018 13:41:37.3767	-4.5733578E-003	2.4522799E-003	3.9297401E+001	2.5748131E-001	1.000000000000000E+000	11	2.1078467E-002	1.4328194E-004	6.7752451E-003	5.5022887E-004	6.7975507E-003	4.6428962E+000	2.5748145E+002	3.1704968E+003	3.1809348E+003	-8.5357101E+001	0.0000000E+000	0.0000000E+000	0.0000000E+000	8.5357101E+001	0.0000000E+000	0.0000000E+000	0.0000000E+000	-8.5357101E+001	0.0000000E+000	0.0000000E+000	0.0000000E+000	-4.6428962E+000	0.0000000E+000	0.0000000E+000	0.0000000E+000	4.6428962E+000	1.2313502E+001	8.5357101E+001
2.5443001E+002	1.4837778E+002	1.3949121E+001	1.4903201E+002	-5.3706403E+000	09/05/2018 13:41:39.0672	-4.5582731E-003	2.6883797E-003	4.4844067E+001	3.9286152E-001	1.000000000000000E+000	11	2.1094393E-002	1.4154270E-004	6.6805114E-003	6.2804058E-004	6.7099677E-003	5.3706403E+000	3.9286182E+002	4.1788960E+003	4.1973218E+003	-8.4629356E+001	0.0000000E+000	0.0000000E+000	0.0000000E+000	8.4629356E+001	0.0000000E+000	0.0000000E+000	0.0000000E+000	-8.4629356E+001	0.0000000E+000	0.0000000E+000	0.0000000E+000	-5.3706403E+000	0.0000000E+000	0.0000000E+000	0.0000000E+000	5.3706403E+000	1.0637071E+001	8.4629356E+001
1.9054874E+002	1.5048502E+002	1.6256454E+001	1.5136053E+002	-6.1655855E+000	09/05/2018 13:41:40.7492	-4.5635314E-003	2.6563031E-003	5.1379303E+001	5.9267223E-001	1.000000000000000E+000	11	2.1063983E-002	1.3916430E-004	6.5685259E-003	7.0957863E-004	6.6067418E-003	6.1655855E+000	5.9267255E+002	5.4863311E+003	5.5182505E+003	-8.3834412E+001	0.0000000E+000	0.0000000E+000	0.0000000E+000	8.3834412E+001	0.0000000E+000	0.0000000E+000	0.0000000E+000	-8.3834412E+001	0.0000000E+000	0.0000000E+000	0.0000000E+000	-6.1655855E+000	0.0000000E+000	0.0000000E+000	0.0000000E+000	6.1655855E+000	9.2569399E+000	8.3834412E+001
1.4249214E+002	1.5279176E+002	1.9012714E+001	1.5397015E+002	-7.0931659E+000	09/05/2018 13:41:42.4633	-4.5523061E-003	2.5798408E-003	5.8746922E+001	8.9577776E-001	1.000000000000000E+000	11	2.1109164E-002	1.3709906E-004	6.4450586E-003	8.0199383E-004	6.4947652E-003	7.0931659E+000	8.9577728E+002	7.1987339E+003	7.2542529E+003	-8.2906837E+001	0.0000000E+000	0.0000000E+000	0.0000000E+000	8.2906837E+001	0.0000000E+000	0.0000000E+000	0.0000000E+000	-8.2906837E+001	0.0000000E+000	0.0000000E+000	0.0000000E+000	-7.0931659E+000	0.0000000E+000	0.0000000E+000	0.0000000E+000	7.0931659E+000	8.0362940E+000	8.2906837E+001
1.0667264E+002	1.5564746E+002	2.2233210E+001	1.5722737E+002	-8.1293297E+000	09/05/2018 13:41:44.1246	-4.5546372E-003	2.5695837E-003	6.7106552E+001	1.3418777E+000	1.000000000000000E+000	11	2.1098062E-002	1.3418823E-004	6.2963045E-003	8.9938543E-004	6.3602156E-003	8.1293297E+000	1.3418784E+003	9.3940488E+003	9.4894043E+003	-8.1870667E+001	0.0000000E+000	0.0000000E+000	0.0000000E+000	8.1870667E+001	0.0000000E+000	0.0000000E+000	0.0000000E+000	-8.1870667E+001	0.0000000E+000	0.0000000E+000	0.0000000E+000	-8.1293297E+000	0.0000000E+000	0.0000000E+000	0.0000000E+000	8.1293297E+000	7.0006742E+000	8.1870667E+001
7.9821213E+001	1.5890904E+002	2.6082994E+001	1.6103542E+002	-9.3212919E+000	09/05/2018 13:41:45.8162	-4.5539471E-003	2.5930819E-003	7.6444168E+001	2.0054715E+000	1.000000000000000E+000	11	2.1080017E-002	1.3090299E-004	6.1278171E-003	1.0058070E-003	6.2098140E-003	9.3212919E+000	2.0054706E+003	1.2218210E+004	1.2381703E+004	-8.0678711E+001	0.0000000E+000	0.0000000E+000	0.0000000E+000	8.0678711E+001	0.0000000E+000	0.0000000E+000	0.0000000E+000	-8.0678711E+001	0.0000000E+000	0.0000000E+000	0.0000000E+000	-9.3212919E+000	0.0000000E+000	0.0000000E+000	0.0000000E+000	9.3212919E+000	6.0924387E+000	8.0678711E+001
