EC-Lab ASCII FILE
Nb header lines : 66                          

Potentio Electrochemical Impedance Spectroscopy

Run on channel : 5 (SN 13220)
User : 
CE vs. WE compliance from -10 V to 10 V
Electrode connection : standard
Potential control : Ewe
Ewe ctrl range : min = -1.00 V, max = 1.00 V
Safety Limits :
	Do not start on E overload
Acquisition started on : 09/05/2018 13:40:50.000
Loaded Setting File : NONE
Saved on :
	File : RM_stacked second run S12_1_C05.mpr
	Directory : D:\Robert\Stacked cells\Second run 3% and 12% PVDF electrodes 12%compressed\
	Host : 10.5.5.6
Device : VMP3 (SN 0628)
Address : 10.5.5.5
EC-Lab for windows v11.17 (software)
Internet server v11.16 (firmware)
Command interpretor v11.16 (firmware)
Electrode material : 
Initial state : 
Electrolyte : 
Comments : 
Electrode surface area : 0.001 cm²
Characteristic mass : 0.001 g
Equivalent Weight : 0.000 g/eq.
Density : 0.000 g/cm3
Volume (V) : 0.000 m³
Text export
   Mode : Standard
   Time format : Elapsed
Cycle Definition : Charge/Discharge alternance
Mode                Single sine         
E (V)               0.0000              
vs.                 Eoc                 
tE (h:m:s)          0:00:3.0000         
record              1                   
dI                  0.000               
unit dI             mA                  
dt (s)              60.000              
fi                  200.000             
unit fi             kHz                 
ff                  10.000              
unit ff             mHz                 
Nd                  8                   
Points              per decade          
spacing             Logarithmic         
Va (mV)             20.0                
pw                  3.00                
Na                  5                   
corr                0                   
E range min (V)     -1.000              
E range max (V)     1.000               
I Range             Auto                
Bandwidth           5                   
nc cycles           0                   
goto Ns'            0                   
nr cycles           0                   
inc. cycle          0                   

freq/Hz	Re(Z)/Ohm	-Im(Z)/Ohm	|Z|/Ohm	Phase(Z)/deg	time/s	<Ewe>/V	<I>/mA	Cs/µF	Cp/µF	cycle number	I Range	|Ewe|/V	|I|/A	Re(Y)/Ohm-1	Im(Y)/Ohm-1	|Y|/Ohm-1	Phase(Y)/deg	Re(C)/nF	Im(C)/nF	|C|/nF	Phase(C)/deg	Re(M)	Im(M)	|M|	Phase(M)/deg	Re(Permittivity)	Im(Permittivity)	|Permittivity|	Phase(Permittivity)/deg	Re(Resistivity)/Ohm.cm	Im(Resistivity)/Ohm.cm	|Resistivity|/Ohm.cm	Phase(Resistivity)/deg	Re(Conductivity)/mS/cm	Im(Conductivity)/mS/cm	|Conductivity|/mS/cm	Phase(Conductivity)/deg	Tan(Delta)	Loss Angle(Delta)/deg	
2.0001948E+005	1.4715559E+002	-1.5258851E+000	1.4716350E+002	5.9408987E-001	09/05/2018 13:40:55.3321	5.6999372E-003	4.5881555E-003	-5.2146602E-001	-5.6062112E-005	1.000000000000000E+000	11	1.8447153E-002	1.2535142E-004	6.7947982E-003	-7.0456590E-005	6.7951633E-003	-5.9408987E-001	-5.6062438E-002	5.4066014E+000	5.4068923E+000	-9.0594093E+001	0.0000000E+000	0.0000000E+000	0.0000000E+000	9.0594093E+001	0.0000000E+000	0.0000000E+000	0.0000000E+000	-9.0594093E+001	0.0000000E+000	0.0000000E+000	0.0000000E+000	5.9408987E-001	0.0000000E+000	0.0000000E+000	0.0000000E+000	-5.9408987E-001	9.6439499E+001	8.9405907E+001
1.4967770E+005	1.4657312E+002	-9.4961876E-001	1.4657620E+002	3.7120301E-001	09/05/2018 13:40:56.3961	5.3459364E-003	1.9811997E-003	-1.1197311E+000	-4.6998648E-005	1.000000000000000E+000	11	2.0570237E-002	1.4033818E-004	6.8222471E-003	-4.4200009E-005	6.8223900E-003	-3.7120301E-001	-4.6998341E-002	7.2542157E+000	7.2543678E+000	-9.0371201E+001	0.0000000E+000	0.0000000E+000	0.0000000E+000	9.0371201E+001	0.0000000E+000	0.0000000E+000	0.0000000E+000	-9.0371201E+001	0.0000000E+000	0.0000000E+000	0.0000000E+000	3.7120301E-001	0.0000000E+000	0.0000000E+000	0.0000000E+000	-3.7120301E-001	1.5434944E+002	8.9628799E+001
1.1201170E+005	1.4623918E+002	-5.3488642E-001	1.4624016E+002	2.0956489E-001	09/05/2018 13:40:57.4611	5.3635002E-003	2.0544960E-003	-2.6564105E+000	-3.5537349E-005	1.000000000000000E+000	11	2.0760480E-002	1.4196156E-004	6.8380213E-003	-2.5010841E-005	6.8380670E-003	-2.0956489E-001	-3.5537235E-002	9.7159939E+000	9.7160587E+000	-9.0209564E+001	0.0000000E+000	0.0000000E+000	0.0000000E+000	9.0209564E+001	0.0000000E+000	0.0000000E+000	0.0000000E+000	-9.0209564E+001	0.0000000E+000	0.0000000E+000	0.0000000E+000	2.0956489E-001	0.0000000E+000	0.0000000E+000	0.0000000E+000	-2.0956489E-001	2.7340231E+002	8.9790436E+001
8.3828102E+004	1.4602153E+002	-6.4682998E-002	1.4602155E+002	2.5380246E-002	09/05/2018 13:40:58.5261	5.3604082E-003	2.0474086E-003	-2.9352179E+001	-5.7595262E-006	1.000000000000000E+000	11	2.0693671E-002	1.4171656E-004	6.8483041E-003	-3.0335855E-006	6.8483045E-003	-2.5380246E-002	-5.7601505E-003	1.3002102E+001	1.3002103E+001	-9.0025383E+001	0.0000000E+000	0.0000000E+000	0.0000000E+000	9.0025383E+001	0.0000000E+000	0.0000000E+000	0.0000000E+000	-9.0025383E+001	0.0000000E+000	0.0000000E+000	0.0000000E+000	2.5380246E-002	0.0000000E+000	0.0000000E+000	0.0000000E+000	-2.5380246E-002	2.2574949E+003	8.9974617E+001
6.2734359E+004	1.4601588E+002	2.9567251E-001	1.4601619E+002	-1.1601999E-001	09/05/2018 13:40:59.5911	5.3738374E-003	2.0556150E-003	8.5803251E+000	3.5182249E-005	1.000000000000000E+000	11	2.0606782E-002	1.4112670E-004	6.8485416E-003	1.3867842E-005	6.8485555E-003	1.1601999E-001	3.5182308E-002	1.7374517E+001	1.7374554E+001	-8.9883980E+001	0.0000000E+000	0.0000000E+000	0.0000000E+000	8.9883980E+001	0.0000000E+000	0.0000000E+000	0.0000000E+000	-8.9883980E+001	0.0000000E+000	0.0000000E+000	0.0000000E+000	-1.1601999E-001	0.0000000E+000	0.0000000E+000	0.0000000E+000	1.1601999E-001	4.9384329E+002	8.9883980E+001
4.6953109E+004	1.4601952E+002	5.8058709E-001	1.4602068E+002	-2.2781210E-001	09/05/2018 13:41:00.6541	5.3778049E-003	1.9951875E-003	5.8383269E+000	9.2298455E-005	1.000000000000000E+000	11	2.0513736E-002	1.4048515E-004	6.8482910E-003	2.7229435E-005	6.8483450E-003	2.2781210E-001	9.2299104E-002	2.3213358E+001	2.3213541E+001	-8.9772186E+001	0.0000000E+000	0.0000000E+000	0.0000000E+000	8.9772186E+001	0.0000000E+000	0.0000000E+000	0.0000000E+000	-8.9772186E+001	0.0000000E+000	0.0000000E+000	0.0000000E+000	-2.2781210E-001	0.0000000E+000	0.0000000E+000	0.0000000E+000	2.2781210E-001	2.5150320E+002	8.9772186E+001
3.5136707E+004	1.4617416E+002	8.8585919E-001	1.4617685E+002	-3.4722531E-001	09/05/2018 13:41:01.7191	5.3788293E-003	1.9802672E-003	5.1132188E+000	1.8778746E-004	1.000000000000000E+000	11	2.0413829E-002	1.3965159E-004	6.8409028E-003	4.1457919E-005	6.8410286E-003	3.4722531E-001	1.8778944E-001	3.0986498E+001	3.0987066E+001	-8.9652771E+001	0.0000000E+000	0.0000000E+000	0.0000000E+000	8.9652771E+001	0.0000000E+000	0.0000000E+000	0.0000000E+000	-8.9652771E+001	0.0000000E+000	0.0000000E+000	0.0000000E+000	-3.4722531E-001	0.0000000E+000	0.0000000E+000	0.0000000E+000	3.4722531E-001	1.6500835E+002	8.9652771E+001
2.6298820E+004	1.4630457E+002	1.1028229E+000	1.4630872E+002	-4.3187922E-001	09/05/2018 13:41:02.7841	5.3793509E-003	2.0332346E-003	5.4875450E+000	3.1178072E-004	1.000000000000000E+000	11	2.0222714E-002	1.3821948E-004	6.8346686E-003	5.1518757E-005	6.8348628E-003	4.3187922E-001	3.1177920E-001	4.1361980E+001	4.1363155E+001	-8.9568123E+001	0.0000000E+000	0.0000000E+000	0.0000000E+000	8.9568123E+001	0.0000000E+000	0.0000000E+000	0.0000000E+000	-8.9568123E+001	0.0000000E+000	0.0000000E+000	0.0000000E+000	-4.3187922E-001	0.0000000E+000	0.0000000E+000	0.0000000E+000	4.3187922E-001	1.3266370E+002	8.9568123E+001
1.9677732E+004	1.4651697E+002	1.3798695E+000	1.4652347E+002	-5.3958499E-001	09/05/2018 13:41:03.7231	5.3846035E-003	2.0283854E-003	5.8614774E+000	5.1983882E-004	1.000000000000000E+000	11	2.1862680E-002	1.4920942E-004	6.8245428E-003	6.4272266E-005	6.8248454E-003	5.3958499E-001	5.1983523E-001	5.5197399E+001	5.5199848E+001	-8.9460419E+001	0.0000000E+000	0.0000000E+000	0.0000000E+000	8.9460419E+001	0.0000000E+000	0.0000000E+000	0.0000000E+000	-8.9460419E+001	0.0000000E+000	0.0000000E+000	0.0000000E+000	-5.3958499E-001	0.0000000E+000	0.0000000E+000	0.0000000E+000	5.3958499E-001	1.0618176E+002	8.9460419E+001
1.4726557E+004	1.4673497E+002	1.6937839E+000	1.4674475E+002	-6.6134441E-001	09/05/2018 13:41:04.7881	5.3832438E-003	1.9908980E-003	6.3805914E+000	8.5006421E-004	1.000000000000000E+000	11	2.0397767E-002	1.3900168E-004	6.8140998E-003	7.8656180E-005	6.8145539E-003	6.6134441E-001	8.5006696E-001	7.3642319E+001	7.3647224E+001	-8.9338654E+001	0.0000000E+000	0.0000000E+000	0.0000000E+000	8.9338654E+001	0.0000000E+000	0.0000000E+000	0.0000000E+000	-8.9338654E+001	0.0000000E+000	0.0000000E+000	0.0000000E+000	-6.6134441E-001	0.0000000E+000	0.0000000E+000	0.0000000E+000	6.6134441E-001	8.6631462E+001	8.9338654E+001
1.1025388E+004	1.4701387E+002	1.9769778E+000	1.4702716E+002	-7.7044195E-001	09/05/2018 13:41:05.7261	5.3891107E-003	1.9953742E-003	7.3017077E+000	1.3201793E-003	1.000000000000000E+000	11	2.1013275E-002	1.4292104E-004	6.8008499E-003	9.1454829E-005	6.8014646E-003	7.7044195E-001	1.3201745E+000	9.8172409E+001	9.8181282E+001	-8.9229561E+001	0.0000000E+000	0.0000000E+000	0.0000000E+000	8.9229561E+001	0.0000000E+000	0.0000000E+000	0.0000000E+000	-8.9229561E+001	0.0000000E+000	0.0000000E+000	0.0000000E+000	-7.7044195E-001	0.0000000E+000	0.0000000E+000	0.0000000E+000	7.7044195E-001	7.4362930E+001	8.9229561E+001
8.3251924E+003	1.4735834E+002	2.3029914E+000	1.4737633E+002	-8.9537483E-001	09/05/2018 13:41:06.8186	5.3949594E-003	2.0580399E-003	8.3010597E+000	2.0270417E-003	1.000000000000000E+000	11	2.1377429E-002	1.4505335E-004	6.7845220E-003	1.0603198E-004	6.7853504E-003	8.9537483E-001	2.0270491E+000	1.2970152E+002	1.2971736E+002	-8.9104622E+001	0.0000000E+000	0.0000000E+000	0.0000000E+000	8.9104622E+001	0.0000000E+000	0.0000000E+000	0.0000000E+000	-8.9104622E+001	0.0000000E+000	0.0000000E+000	0.0000000E+000	-8.9537483E-001	0.0000000E+000	0.0000000E+000	0.0000000E+000	8.9537483E-001	6.3985622E+001	8.9104622E+001
6.1954932E+003	1.4769055E+002	2.7112019E+000	1.4771544E+002	-1.0516785E+000	09/05/2018 13:41:08.2338	5.3895763E-003	1.9854899E-003	9.4750700E+000	3.1919372E-003	1.000000000000000E+000	11	2.1599626E-002	1.4622457E-004	6.7686327E-003	1.2425391E-004	6.7697731E-003	1.0516785E+000	3.1919463E+000	1.7387822E+002	1.7390752E+002	-8.8948318E+001	0.0000000E+000	0.0000000E+000	0.0000000E+000	8.8948318E+001	0.0000000E+000	0.0000000E+000	0.0000000E+000	-8.8948318E+001	0.0000000E+000	0.0000000E+000	0.0000000E+000	-1.0516785E+000	0.0000000E+000	0.0000000E+000	0.0000000E+000	1.0516785E+000	5.4474197E+001	8.8948318E+001
4.6214780E+003	1.4815956E+002	3.1412654E+000	1.4819286E+002	-1.2145979E+000	09/05/2018 13:41:09.9227	5.3881234E-003	1.9687044E-003	1.0963131E+001	4.9259425E-003	1.000000000000000E+000	11	2.1724228E-002	1.4659431E-004	6.7464476E-003	1.4303757E-004	6.7479638E-003	1.2145979E+000	4.9259491E+000	2.3233485E+002	2.3238707E+002	-8.8785400E+001	0.0000000E+000	0.0000000E+000	0.0000000E+000	8.8785400E+001	0.0000000E+000	0.0000000E+000	0.0000000E+000	-8.8785400E+001	0.0000000E+000	0.0000000E+000	0.0000000E+000	-1.2145979E+000	0.0000000E+000	0.0000000E+000	0.0000000E+000	1.2145979E+000	4.7165565E+001	8.8785400E+001
3.4561052E+003	1.4865428E+002	3.6019988E+000	1.4869792E+002	-1.3880458E+000	09/05/2018 13:41:11.6097	5.3904890E-003	2.0468496E-003	1.2784673E+001	7.5018252E-003	1.000000000000000E+000	11	2.1793285E-002	1.4656079E-004	6.7230701E-003	1.6290476E-004	6.7250435E-003	1.3880458E+000	7.5018282E+000	3.0959991E+002	3.0969080E+002	-8.8611954E+001	0.0000000E+000	0.0000000E+000	0.0000000E+000	8.8611954E+001	0.0000000E+000	0.0000000E+000	0.0000000E+000	-8.8611954E+001	0.0000000E+000	0.0000000E+000	0.0000000E+000	-1.3880458E+000	0.0000000E+000	0.0000000E+000	0.0000000E+000	1.3880458E+000	4.1269943E+001	8.8611954E+001
2.5858269E+003	1.4916197E+002	4.1728816E+000	1.4922034E+002	-1.6024605E+000	09/05/2018 13:41:13.2977	5.4007517E-003	2.0416277E-003	1.4749749E+001	1.1534551E-002	1.000000000000000E+000	11	2.1826975E-002	1.4627347E-004	6.6988785E-003	1.8740451E-004	6.7014992E-003	1.6024605E+000	1.1534569E+001	4.1230896E+002	4.1247028E+002	-8.8397537E+001	0.0000000E+000	0.0000000E+000	0.0000000E+000	8.8397537E+001	0.0000000E+000	0.0000000E+000	0.0000000E+000	-8.8397537E+001	0.0000000E+000	0.0000000E+000	0.0000000E+000	-1.6024605E+000	0.0000000E+000	0.0000000E+000	0.0000000E+000	1.6024605E+000	3.5745556E+001	8.8397537E+001
1.9356189E+003	1.4985846E+002	4.8102422E+000	1.4993564E+002	-1.8384814E+000	09/05/2018 13:41:14.9857	5.3910664E-003	2.0104814E-003	1.7093592E+001	1.7593712E-002	1.000000000000000E+000	11	2.1850955E-002	1.4573557E-004	6.6660950E-003	2.1397213E-004	6.6695283E-003	1.8384814E+000	1.7593679E+001	5.4811511E+002	5.4839740E+002	-8.8161522E+001	0.0000000E+000	0.0000000E+000	0.0000000E+000	8.8161522E+001	0.0000000E+000	0.0000000E+000	0.0000000E+000	-8.8161522E+001	0.0000000E+000	0.0000000E+000	0.0000000E+000	-1.8384814E+000	0.0000000E+000	0.0000000E+000	0.0000000E+000	1.8384814E+000	3.1154036E+001	8.8161522E+001
1.4486094E+003	1.5059653E+002	5.5727696E+000	1.5069960E+002	-2.1192424E+000	09/05/2018 13:41:16.6749	5.3928918E-003	2.0222310E-003	1.9715044E+001	2.6959743E-002	1.000000000000000E+000	11	2.1859460E-002	1.4505320E-004	6.6311788E-003	2.4538435E-004	6.6357176E-003	2.1192424E+000	2.6959707E+001	7.2855035E+002	7.2904901E+002	-8.7880760E+001	0.0000000E+000	0.0000000E+000	0.0000000E+000	8.7880760E+001	0.0000000E+000	0.0000000E+000	0.0000000E+000	-8.7880760E+001	0.0000000E+000	0.0000000E+000	0.0000000E+000	-2.1192424E+000	0.0000000E+000	0.0000000E+000	0.0000000E+000	2.1192424E+000	2.7023642E+001	8.7880760E+001
1.0839595E+003	1.5144968E+002	6.4764061E+000	1.5158809E+002	-2.4486337E+000	09/05/2018 13:41:18.3629	5.3936741E-003	1.9907118E-003	2.2671124E+001	4.1381955E-002	1.000000000000000E+000	11	2.1861458E-002	1.4421620E-004	6.5908008E-003	2.8184082E-004	6.5968242E-003	2.4486337E+000	4.1381916E+001	9.6771021E+002	9.6859460E+002	-8.7551369E+001	0.0000000E+000	0.0000000E+000	0.0000000E+000	8.7551369E+001	0.0000000E+000	0.0000000E+000	0.0000000E+000	-8.7551369E+001	0.0000000E+000	0.0000000E+000	0.0000000E+000	-2.4486337E+000	0.0000000E+000	0.0000000E+000	0.0000000E+000	2.4486337E+000	2.3384832E+001	8.7551369E+001
8.1129767E+002	1.5244565E+002	7.5032964E+000	1.5263019E+002	-2.8177950E+000	09/05/2018 13:41:20.0494	5.3875833E-003	1.9334549E-003	2.6144951E+001	6.3184582E-002	1.000000000000000E+000	11	2.1866940E-002	1.4326746E-004	6.5438622E-003	3.2208557E-004	6.5517840E-003	2.8177950E+000	6.3184578E+001	1.2837311E+003	1.2852850E+003	-8.7182205E+001	0.0000000E+000	0.0000000E+000	0.0000000E+000	8.7182205E+001	0.0000000E+000	0.0000000E+000	0.0000000E+000	-8.7182205E+001	0.0000000E+000	0.0000000E+000	0.0000000E+000	-2.8177950E+000	0.0000000E+000	0.0000000E+000	0.0000000E+000	2.8177950E+000	2.0317156E+001	8.7182205E+001
6.0752716E+002	1.5356281E+002	8.6754827E+000	1.5380766E+002	-3.2334700E+000	09/05/2018 13:41:21.7289	5.3886450E-003	1.9860489E-003	3.0196791E+001	9.6070960E-002	1.000000000000000E+000	11	2.1866389E-002	1.4216709E-004	6.4912760E-003	3.6672261E-004	6.5016267E-003	3.2334700E+000	9.6070862E+001	1.7005308E+003	1.7032423E+003	-8.6766533E+001	0.0000000E+000	0.0000000E+000	0.0000000E+000	8.6766533E+001	0.0000000E+000	0.0000000E+000	0.0000000E+000	-8.6766533E+001	0.0000000E+000	0.0000000E+000	0.0000000E+000	-3.2334700E+000	0.0000000E+000	0.0000000E+000	0.0000000E+000	3.2334700E+000	1.7700779E+001	8.6766533E+001
4.5456351E+002	1.5479248E+002	1.0131597E+001	1.5512370E+002	-3.7448258E+000	09/05/2018 13:41:23.4180	5.3841565E-003	1.9334548E-003	3.4557926E+001	1.4741686E-001	1.000000000000000E+000	11	2.1865733E-002	1.4095675E-004	6.4327037E-003	4.2103828E-004	6.4464682E-003	3.7448258E+000	1.4741690E+002	2.2522629E+003	2.2570823E+003	-8.6255173E+001	0.0000000E+000	0.0000000E+000	0.0000000E+000	8.6255173E+001	0.0000000E+000	0.0000000E+000	0.0000000E+000	-8.6255173E+001	0.0000000E+000	0.0000000E+000	0.0000000E+000	-3.7448258E+000	0.0000000E+000	0.0000000E+000	0.0000000E+000	3.7448258E+000	1.5278193E+001	8.6255173E+001
3.4010876E+002	1.5629665E+002	1.1769601E+001	1.5673917E+002	-4.3064141E+000	09/05/2018 13:41:25.1057	5.3874529E-003	1.9424069E-003	3.9759472E+001	2.2418626E-001	1.000000000000000E+000	11	2.1867875E-002	1.3951762E-004	6.3620135E-003	4.7907847E-004	6.3800262E-003	4.3064141E+000	2.2418610E+002	2.9771238E+003	2.9855527E+003	-8.5693588E+001	0.0000000E+000	0.0000000E+000	0.0000000E+000	8.5693588E+001	0.0000000E+000	0.0000000E+000	0.0000000E+000	-8.5693588E+001	0.0000000E+000	0.0000000E+000	0.0000000E+000	-4.3064141E+000	0.0000000E+000	0.0000000E+000	0.0000000E+000	4.3064141E+000	1.3279690E+001	8.5693588E+001
2.5443001E+002	1.5803880E+002	1.3704694E+001	1.5863191E+002	-4.9561353E+000	09/05/2018 13:41:26.7962	5.3854790E-003	2.0061915E-003	4.5643871E+001	3.4067482E-001	1.000000000000000E+000	11	2.1864910E-002	1.3783424E-004	6.2803323E-003	5.4461329E-004	6.3039018E-003	4.9561353E+000	3.4067505E+002	3.9285693E+003	3.9433130E+003	-8.5043861E+001	0.0000000E+000	0.0000000E+000	0.0000000E+000	8.5043861E+001	0.0000000E+000	0.0000000E+000	0.0000000E+000	-8.5043861E+001	0.0000000E+000	0.0000000E+000	0.0000000E+000	-4.9561353E+000	0.0000000E+000	0.0000000E+000	0.0000000E+000	4.9561353E+000	1.1531728E+001	8.5043861E+001
1.9054874E+002	1.6002371E+002	1.6019848E+001	1.6082358E+002	-5.7167888E+000	09/05/2018 13:41:28.4782	5.3874529E-003	1.9618033E-003	5.2138157E+001	5.1733637E-001	1.000000000000000E+000	11	2.1864444E-002	1.3595297E-004	6.1870683E-003	6.1938254E-004	6.2179938E-003	5.7167888E+000	5.1733643E+002	5.1677197E+003	5.1935503E+003	-8.4283211E+001	0.0000000E+000	0.0000000E+000	0.0000000E+000	8.4283211E+001	0.0000000E+000	0.0000000E+000	0.0000000E+000	-8.4283211E+001	0.0000000E+000	0.0000000E+000	0.0000000E+000	-5.7167888E+000	0.0000000E+000	0.0000000E+000	0.0000000E+000	5.7167888E+000	9.9890909E+000	8.4283211E+001
1.4249214E+002	1.6237944E+002	1.8781704E+001	1.6346204E+002	-6.5978279E+000	09/05/2018 13:41:30.1923	5.3916997E-003	1.9632953E-003	5.9469494E+001	7.8510982E-001	1.000000000000000E+000	11	2.1868467E-002	1.3378316E-004	6.0771122E-003	7.0291240E-004	6.1176284E-003	6.5978279E+000	7.8510938E+002	6.7877598E+003	6.8330142E+003	-8.3402176E+001	0.0000000E+000	0.0000000E+000	0.0000000E+000	8.3402176E+001	0.0000000E+000	0.0000000E+000	0.0000000E+000	-8.3402176E+001	0.0000000E+000	0.0000000E+000	0.0000000E+000	-6.5978279E+000	0.0000000E+000	0.0000000E+000	0.0000000E+000	6.5978279E+000	8.6456184E+000	8.3402176E+001
1.0667264E+002	1.6513191E+002	2.1994438E+001	1.6659023E+002	-7.5867515E+000	09/05/2018 13:41:31.8546	5.3891852E-003	1.9161097E-003	6.7835060E+001	1.1824449E+000	1.000000000000000E+000	11	2.1865107E-002	1.3125084E-004	5.9502055E-003	7.9252658E-004	6.0027530E-003	7.5867515E+000	1.1824453E+003	8.8776709E+003	8.9560713E+003	-8.2413246E+001	0.0000000E+000	0.0000000E+000	0.0000000E+000	8.2413246E+001	0.0000000E+000	0.0000000E+000	0.0000000E+000	-8.2413246E+001	0.0000000E+000	0.0000000E+000	0.0000000E+000	-7.5867515E+000	0.0000000E+000	0.0000000E+000	0.0000000E+000	7.5867515E+000	7.5078940E+000	8.2413246E+001
7.9821213E+001	1.6835059E+002	2.5776524E+001	1.7031250E+002	-8.7050762E+000	09/05/2018 13:41:33.5452	5.3935251E-003	1.9524780E-003	7.7353050E+001	1.7718751E+000	1.000000000000000E+000	11	2.1866605E-002	1.2839107E-004	5.8039217E-003	8.8865112E-004	5.8715595E-003	8.7050762E+000	1.7718755E+003	1.1572398E+004	1.1707261E+004	-8.1294922E+001	0.0000000E+000	0.0000000E+000	0.0000000E+000	8.1294922E+001	0.0000000E+000	0.0000000E+000	0.0000000E+000	-8.1294922E+001	0.0000000E+000	0.0000000E+000	0.0000000E+000	-8.7050762E+000	0.0000000E+000	0.0000000E+000	0.0000000E+000	8.7050762E+000	6.5311594E+000	8.1294922E+001
