EC-Lab ASCII FILE
Nb header lines : 70                          

Potentio Electrochemical Impedance Spectroscopy

Run on channel : 7 (SN 13829)
User : 
CE vs. WE compliance from -10 V to 10 V
Electrode connection : standard
Potential control : Ewe
Ewe ctrl range : min = -1.00 V, max = 1.00 V
Safety Limits :
	Do not start on E overload
Acquisition started on : 09/05/2018 13:41:21.000
Loaded Setting File : NONE
Saved on :
	File : RM_stacked second run D3_1_C07.mpr
	Directory : D:\Robert\Stacked cells\Second run 3% and 12% PVDF electrodes 12%compressed\
	Host : 10.5.5.6
Device : VMP3 (SN 0628)
Address : 10.5.5.5
EC-Lab for windows v11.17 (software)
Internet server v11.16 (firmware)
Command interpretor v11.16 (firmware)
Electrode material : 
Initial state : 
Electrolyte : 
Comments : 
Electrode surface area : 0.001 cm²
Characteristic mass : 0.001 g
Equivalent Weight : 0.000 g/eq.
Density : 0.000 g/cm3
Volume (V) : 0.000 m³
Text export
   Mode : Standard
   Time format : Elapsed
Cycle Definition : Charge/Discharge alternance
Mode                Single sine         
E (V)               0.0000              
vs.                 Eoc                 
tE (h:m:s)          0:00:3.0000         
record              1                   
dI                  0.000               
unit dI             mA                  
dt (s)              60.000              
fi                  200.000             
unit fi             kHz                 
ff                  10.000              
unit ff             mHz                 
Nd                  8                   
Points              per decade          
spacing             Logarithmic         
Va (mV)             20.0                
pw                  3.00                
Na                  5                   
corr                0                   
E range min (V)     -1.000              
E range max (V)     1.000               
I Range             Auto                
Bandwidth           5                   
nc cycles           0                   
goto Ns'            0                   
nr cycles           0                   
inc. cycle          0                   

Modify on : 09/05/2018 14:32
No text export
ff                  8.000               

freq/Hz	Re(Z)/Ohm	-Im(Z)/Ohm	|Z|/Ohm	Phase(Z)/deg	time/s	<Ewe>/V	<I>/mA	Cs/µF	Cp/µF	cycle number	I Range	|Ewe|/V	|I|/A	Re(Y)/Ohm-1	Im(Y)/Ohm-1	|Y|/Ohm-1	Phase(Y)/deg	Re(C)/nF	Im(C)/nF	|C|/nF	Phase(C)/deg	Re(M)	Im(M)	|M|	Phase(M)/deg	Re(Permittivity)	Im(Permittivity)	|Permittivity|	Phase(Permittivity)/deg	Re(Resistivity)/Ohm.cm	Im(Resistivity)/Ohm.cm	|Resistivity|/Ohm.cm	Phase(Resistivity)/deg	Re(Conductivity)/mS/cm	Im(Conductivity)/mS/cm	|Conductivity|/mS/cm	Phase(Conductivity)/deg	Tan(Delta)	Loss Angle(Delta)/deg	
2.0001948E+005	1.5813510E+002	1.4044126E-003	1.5813510E+002	-5.0884916E-004	09/05/2018 13:41:26.3321	1.0219253E-002	-1.1441337E-003	5.6656940E+002	4.4687489E-008	1.000000000000000E+000	11	1.8345382E-002	1.1601081E-004	6.3237068E-003	5.6161429E-008	6.3237068E-003	5.0884916E-004	4.4891258E-005	5.0317554E+000	5.0317554E+000	-8.9999489E+001	0.0000000E+000	0.0000000E+000	0.0000000E+000	8.9999489E+001	0.0000000E+000	0.0000000E+000	0.0000000E+000	-8.9999489E+001	0.0000000E+000	0.0000000E+000	0.0000000E+000	-5.0884916E-004	0.0000000E+000	0.0000000E+000	0.0000000E+000	5.0884916E-004	1.1259875E+005	8.9999489E+001
1.4967770E+005	1.5723698E+002	1.1538126E-001	1.5723703E+002	-4.2043913E-002	09/05/2018 13:41:27.3971	1.0757594E-002	2.2167605E-003	9.2156868E+000	4.9623645E-006	1.000000000000000E+000	11	2.0560414E-002	1.3076063E-004	6.3598230E-003	4.6668692E-006	6.3598249E-003	4.2043913E-002	4.9625626E-003	6.7625122E+000	6.7625141E+000	-8.9957954E+001	0.0000000E+000	0.0000000E+000	0.0000000E+000	8.9957954E+001	0.0000000E+000	0.0000000E+000	0.0000000E+000	-8.9957954E+001	0.0000000E+000	0.0000000E+000	0.0000000E+000	-4.2043913E-002	0.0000000E+000	0.0000000E+000	0.0000000E+000	4.2043913E-002	1.3627601E+003	8.9957954E+001
1.1201170E+005	1.5673134E+002	3.2648221E-001	1.5673167E+002	-1.1935090E-001	09/05/2018 13:41:28.4621	1.0747460E-002	2.2029618E-003	4.3520837E+000	1.8884381E-005	1.000000000000000E+000	11	2.0758810E-002	1.3244808E-004	6.3803173E-003	1.3290642E-005	6.3803312E-003	1.1935090E-001	1.8884910E-002	9.0656519E+000	9.0656719E+000	-8.9880646E+001	0.0000000E+000	0.0000000E+000	0.0000000E+000	8.9880646E+001	0.0000000E+000	0.0000000E+000	0.0000000E+000	-8.9880646E+001	0.0000000E+000	0.0000000E+000	0.0000000E+000	-1.1935090E-001	0.0000000E+000	0.0000000E+000	0.0000000E+000	1.1935090E-001	4.8006088E+002	8.9880646E+001
8.3828102E+004	1.5642639E+002	4.6186683E-001	1.5642708E+002	-1.6917184E-001	09/05/2018 13:41:29.5271	1.0749064E-002	2.1611929E-003	4.1106806E+000	3.5836318E-005	1.000000000000000E+000	11	2.0652285E-002	1.3202500E-004	6.3927271E-003	1.8875257E-005	6.3927551E-003	1.6917184E-001	3.5836820E-002	1.2137150E+001	1.2137202E+001	-8.9830826E+001	0.0000000E+000	0.0000000E+000	0.0000000E+000	8.9830826E+001	0.0000000E+000	0.0000000E+000	0.0000000E+000	-8.9830826E+001	0.0000000E+000	0.0000000E+000	0.0000000E+000	-1.6917184E-001	0.0000000E+000	0.0000000E+000	0.0000000E+000	1.6917184E-001	3.3868289E+002	8.9830826E+001
6.2734359E+004	1.5637221E+002	7.3890013E-001	1.5637395E+002	-2.7073574E-001	09/05/2018 13:41:30.5911	1.0760879E-002	2.3265898E-003	3.4334357E+000	7.6660494E-005	1.000000000000000E+000	11	2.0629486E-002	1.3192405E-004	6.3948557E-003	3.0217388E-005	6.3949269E-003	2.7073574E-001	7.6660767E-002	1.6223534E+001	1.6223715E+001	-8.9729263E+001	0.0000000E+000	0.0000000E+000	0.0000000E+000	8.9729263E+001	0.0000000E+000	0.0000000E+000	0.0000000E+000	-8.9729263E+001	0.0000000E+000	0.0000000E+000	0.0000000E+000	-2.7073574E-001	0.0000000E+000	0.0000000E+000	0.0000000E+000	2.7073574E-001	2.1162834E+002	8.9729263E+001
4.6953109E+004	1.5637257E+002	9.7407234E-001	1.5637561E+002	-3.5690090E-001	09/05/2018 13:41:31.6551	1.0762279E-002	2.3469147E-003	3.4798825E+000	1.3502337E-004	1.000000000000000E+000	11	2.0494733E-002	1.3106094E-004	6.3947351E-003	3.9833933E-005	6.3948589E-003	3.5690090E-001	1.3502420E-001	2.1675961E+001	2.1676380E+001	-8.9643097E+001	0.0000000E+000	0.0000000E+000	0.0000000E+000	8.9643097E+001	0.0000000E+000	0.0000000E+000	0.0000000E+000	-8.9643097E+001	0.0000000E+000	0.0000000E+000	0.0000000E+000	-3.5690090E-001	0.0000000E+000	0.0000000E+000	0.0000000E+000	3.5690090E-001	1.6053487E+002	8.9643097E+001
3.5136707E+004	1.5648465E+002	1.1673211E+000	1.5648900E+002	-4.2739868E-001	09/05/2018 13:41:32.7201	1.0773944E-002	2.3584757E-003	3.8803308E+000	2.1591449E-004	1.000000000000000E+000	11	2.0420590E-002	1.3049218E-004	6.3900477E-003	4.7667538E-005	6.3902256E-003	4.2739868E-001	2.1591449E-001	2.8944309E+001	2.8945114E+001	-8.9572601E+001	0.0000000E+000	0.0000000E+000	0.0000000E+000	8.9572601E+001	0.0000000E+000	0.0000000E+000	0.0000000E+000	-8.9572601E+001	0.0000000E+000	0.0000000E+000	0.0000000E+000	-4.2739868E-001	0.0000000E+000	0.0000000E+000	0.0000000E+000	4.2739868E-001	1.3405450E+002	8.9572601E+001
2.6298820E+004	1.5664226E+002	1.3779469E+000	1.5664832E+002	-5.0400513E-001	09/05/2018 13:41:33.7851	1.0771928E-002	2.3137233E-003	4.3918896E+000	3.3983248E-004	1.000000000000000E+000	11	2.0264756E-002	1.2936466E-004	6.3834796E-003	5.6154036E-005	6.3837264E-003	5.0400513E-001	3.3983266E-001	3.8631477E+001	3.8632973E+001	-8.9495995E+001	0.0000000E+000	0.0000000E+000	0.0000000E+000	8.9495995E+001	0.0000000E+000	0.0000000E+000	0.0000000E+000	-8.9495995E+001	0.0000000E+000	0.0000000E+000	0.0000000E+000	-5.0400513E-001	0.0000000E+000	0.0000000E+000	0.0000000E+000	5.0400513E-001	1.1367801E+002	8.9495995E+001
1.9677732E+004	1.5687703E+002	1.6062678E+000	1.5688525E+002	-5.8663243E-001	09/05/2018 13:41:34.7231	1.0780009E-002	2.3459822E-003	5.0353208E+000	5.2783574E-004	1.000000000000000E+000	11	2.1826375E-002	1.3912318E-004	6.3737514E-003	6.5260996E-005	6.3740853E-003	5.8663243E-001	5.2783513E-001	5.1551369E+001	5.1554070E+001	-8.9413368E+001	0.0000000E+000	0.0000000E+000	0.0000000E+000	8.9413368E+001	0.0000000E+000	0.0000000E+000	0.0000000E+000	-8.9413368E+001	0.0000000E+000	0.0000000E+000	0.0000000E+000	-5.8663243E-001	0.0000000E+000	0.0000000E+000	0.0000000E+000	5.8663243E-001	9.7665550E+001	8.9413368E+001
1.4726557E+004	1.5713274E+002	1.9236143E+000	1.5714452E+002	-7.0137817E-001	09/05/2018 13:41:35.7881	1.0774784E-002	2.3469143E-003	5.6182485E+000	8.4185723E-004	1.000000000000000E+000	11	2.0250447E-002	1.2886513E-004	6.3630925E-003	7.7896788E-005	6.3635693E-003	7.0137817E-001	8.4185696E-001	6.8768127E+001	6.8773277E+001	-8.9298622E+001	0.0000000E+000	0.0000000E+000	0.0000000E+000	8.9298622E+001	0.0000000E+000	0.0000000E+000	0.0000000E+000	-8.9298622E+001	0.0000000E+000	0.0000000E+000	0.0000000E+000	-7.0137817E-001	0.0000000E+000	0.0000000E+000	0.0000000E+000	7.0137817E-001	8.1686195E+001	8.9298622E+001
1.1025388E+004	1.5740410E+002	2.1979144E+000	1.5741945E+002	-7.9999840E-001	09/05/2018 13:41:36.7261	1.0773403E-002	2.4136703E-003	6.5677328E+000	1.2803251E-003	1.000000000000000E+000	11	2.0827992E-002	1.3230888E-004	6.3518360E-003	8.8693952E-005	6.3524554E-003	7.9999840E-001	1.2803203E+000	9.1690750E+001	9.1699692E+001	-8.9200005E+001	0.0000000E+000	0.0000000E+000	0.0000000E+000	8.9200005E+001	0.0000000E+000	0.0000000E+000	0.0000000E+000	-8.9200005E+001	0.0000000E+000	0.0000000E+000	0.0000000E+000	-7.9999840E-001	0.0000000E+000	0.0000000E+000	0.0000000E+000	7.9999840E-001	7.1615211E+001	8.9200005E+001
8.3251924E+003	1.5779263E+002	2.4954360E+000	1.5781236E+002	-9.0603739E-001	09/05/2018 13:41:37.8176	1.0789566E-002	2.4990723E-003	7.6608930E+000	1.9155357E-003	1.000000000000000E+000	11	2.1168478E-002	1.3413701E-004	6.3358471E-003	1.0019923E-004	6.3366392E-003	9.0603739E-001	1.9155334E+000	1.2112409E+002	1.2113924E+002	-8.9093964E+001	0.0000000E+000	0.0000000E+000	0.0000000E+000	8.9093964E+001	0.0000000E+000	0.0000000E+000	0.0000000E+000	-8.9093964E+001	0.0000000E+000	0.0000000E+000	0.0000000E+000	-9.0603739E-001	0.0000000E+000	0.0000000E+000	0.0000000E+000	9.0603739E-001	6.3232491E+001	8.9093964E+001
6.1954932E+003	1.5821550E+002	2.8940563E+000	1.5824197E+002	-1.0479296E+000	09/05/2018 13:41:39.2328	1.0772507E-002	2.2861261E-003	8.8764086E+000	2.9689840E-003	1.000000000000000E+000	11	2.1375231E-002	1.3507940E-004	6.3183787E-003	1.1557491E-004	6.3194358E-003	1.0479296E+000	2.9689791E+000	1.6231175E+002	1.6233890E+002	-8.8952072E+001	0.0000000E+000	0.0000000E+000	0.0000000E+000	8.8952072E+001	0.0000000E+000	0.0000000E+000	0.0000000E+000	-8.8952072E+001	0.0000000E+000	0.0000000E+000	0.0000000E+000	-1.0479296E+000	0.0000000E+000	0.0000000E+000	0.0000000E+000	1.0479296E+000	5.4669117E+001	8.8952072E+001
4.6214780E+003	1.5869208E+002	3.3360338E+000	1.5872714E+002	-1.2042977E+000	09/05/2018 13:41:40.9197	1.0769334E-002	2.3174528E-003	1.0323068E+001	4.5600254E-003	1.000000000000000E+000	11	2.1488354E-002	1.3537920E-004	6.2987278E-003	1.3241221E-004	6.3001197E-003	1.2042977E+000	4.5600348E+000	2.1691628E+002	2.1696420E+002	-8.8795700E+001	0.0000000E+000	0.0000000E+000	0.0000000E+000	8.8795700E+001	0.0000000E+000	0.0000000E+000	0.0000000E+000	-8.8795700E+001	0.0000000E+000	0.0000000E+000	0.0000000E+000	-1.2042977E+000	0.0000000E+000	0.0000000E+000	0.0000000E+000	1.2042977E+000	4.7569084E+001	8.8795700E+001
3.4561052E+003	1.5922972E+002	3.8208365E+000	1.5927556E+002	-1.3745914E+000	09/05/2018 13:41:42.6077	1.0771574E-002	2.3346080E-003	1.2052433E+001	6.9357487E-003	1.000000000000000E+000	11	2.1554232E-002	1.3532667E-004	6.2766206E-003	1.5061221E-004	6.2784273E-003	1.3745914E+000	6.9357319E+000	2.8904074E+002	2.8912393E+002	-8.8625412E+001	0.0000000E+000	0.0000000E+000	0.0000000E+000	8.8625412E+001	0.0000000E+000	0.0000000E+000	0.0000000E+000	-8.8625412E+001	0.0000000E+000	0.0000000E+000	0.0000000E+000	-1.3745914E+000	0.0000000E+000	0.0000000E+000	0.0000000E+000	1.3745914E+000	4.1674046E+001	8.8625412E+001
2.5858269E+003	1.5989224E+002	4.3527184E+000	1.5995148E+002	-1.5593678E+000	09/05/2018 13:41:44.2957	1.0776949E-002	2.3493387E-003	1.4140348E+001	1.0471400E-002	1.000000000000000E+000	11	2.1588337E-002	1.3496804E-004	6.2495805E-003	1.7013123E-004	6.2518958E-003	1.5593678E+000	1.0471377E+001	3.8465518E+002	3.8479770E+002	-8.8440636E+001	0.0000000E+000	0.0000000E+000	0.0000000E+000	8.8440636E+001	0.0000000E+000	0.0000000E+000	0.0000000E+000	-8.8440636E+001	0.0000000E+000	0.0000000E+000	0.0000000E+000	-1.5593678E+000	0.0000000E+000	0.0000000E+000	0.0000000E+000	1.5593678E+000	3.6733883E+001	8.8440636E+001
1.9356189E+003	1.6060556E+002	4.9571452E+000	1.6068204E+002	-1.7678925E+000	09/05/2018 13:41:45.9827	1.0769315E-002	2.3004843E-003	1.6587030E+001	1.5786914E-002	1.000000000000000E+000	11	2.1607045E-002	1.3447081E-004	6.2205084E-003	1.9199812E-004	6.2234709E-003	1.7678925E+000	1.5786900E+001	5.1147708E+002	5.1172064E+002	-8.8232109E+001	0.0000000E+000	0.0000000E+000	0.0000000E+000	8.8232109E+001	0.0000000E+000	0.0000000E+000	0.0000000E+000	-8.8232109E+001	0.0000000E+000	0.0000000E+000	0.0000000E+000	-1.7678925E+000	0.0000000E+000	0.0000000E+000	0.0000000E+000	1.7678925E+000	3.2398800E+001	8.8232109E+001
1.4486094E+003	1.6135309E+002	5.6136260E+000	1.6145071E+002	-1.9925704E+000	09/05/2018 13:41:47.6709	1.0775997E-002	2.3042138E-003	1.9571558E+001	2.3660962E-002	1.000000000000000E+000	11	2.1614589E-002	1.3387731E-004	6.1900956E-003	2.1535925E-004	6.1938409E-003	1.9925704E+000	2.3660944E+001	6.8008972E+002	6.8050116E+002	-8.8007431E+001	0.0000000E+000	0.0000000E+000	0.0000000E+000	8.8007431E+001	0.0000000E+000	0.0000000E+000	0.0000000E+000	-8.8007431E+001	0.0000000E+000	0.0000000E+000	0.0000000E+000	-1.9925704E+000	0.0000000E+000	0.0000000E+000	0.0000000E+000	1.9925704E+000	2.8743113E+001	8.8007431E+001
1.0839595E+003	1.6227986E+002	6.3999395E+000	1.6240601E+002	-2.2584417E+000	09/05/2018 13:41:49.3600	1.0774055E-002	2.2965686E-003	2.2941998E+001	3.5626963E-002	1.000000000000000E+000	11	2.1622859E-002	1.3314075E-004	6.1526247E-003	2.4264518E-004	6.1574075E-003	2.2584417E+000	3.5626907E+001	9.0337390E+002	9.0407617E+002	-8.7741562E+001	0.0000000E+000	0.0000000E+000	0.0000000E+000	8.7741562E+001	0.0000000E+000	0.0000000E+000	0.0000000E+000	-8.7741562E+001	0.0000000E+000	0.0000000E+000	0.0000000E+000	-2.2584417E+000	0.0000000E+000	0.0000000E+000	0.0000000E+000	2.2584417E+000	2.5356468E+001	8.7741562E+001
8.1129767E+002	1.6326498E+002	7.3070726E+000	1.6342842E+002	-2.5626144E+000	09/05/2018 13:41:51.0454	1.0777509E-002	2.3086893E-003	2.6847044E+001	5.3669576E-002	1.000000000000000E+000	11	2.1622166E-002	1.3230358E-004	6.1127674E-003	2.7358247E-004	6.1188866E-003	2.5626144E+000	5.3669579E+001	1.1991619E+003	1.2003623E+003	-8.7437386E+001	0.0000000E+000	0.0000000E+000	0.0000000E+000	8.7437386E+001	0.0000000E+000	0.0000000E+000	0.0000000E+000	-8.7437386E+001	0.0000000E+000	0.0000000E+000	0.0000000E+000	-2.5626144E+000	0.0000000E+000	0.0000000E+000	0.0000000E+000	2.5626144E+000	2.2343418E+001	8.7437386E+001
6.0752716E+002	1.6439563E+002	8.3890867E+000	1.6460954E+002	-2.9212618E+000	09/05/2018 13:41:52.7249	1.0775269E-002	2.3237930E-003	3.1227680E+001	8.1107140E-002	1.000000000000000E+000	11	2.1622069E-002	1.3135368E-004	6.0670874E-003	3.0960265E-004	6.0749818E-003	2.9212618E+000	8.1107216E+001	1.5894054E+003	1.5914735E+003	-8.7078735E+001	0.0000000E+000	0.0000000E+000	0.0000000E+000	8.7078735E+001	0.0000000E+000	0.0000000E+000	0.0000000E+000	-8.7078735E+001	0.0000000E+000	0.0000000E+000	0.0000000E+000	-2.9212618E+000	0.0000000E+000	0.0000000E+000	0.0000000E+000	2.9212618E+000	1.9596369E+001	8.7078735E+001
4.5456351E+002	1.6573184E+002	9.5665226E+000	1.6600772E+002	-3.3036125E+000	09/05/2018 13:41:54.4140	1.0772376E-002	2.2156413E-003	3.6599190E+001	1.2154108E-001	1.000000000000000E+000	11	2.1626145E-002	1.3027192E-004	6.0138060E-003	3.4713428E-004	6.0238163E-003	3.3036125E+000	1.2154105E+002	2.1055957E+003	2.1091006E+003	-8.6696388E+001	0.0000000E+000	0.0000000E+000	0.0000000E+000	8.6696388E+001	0.0000000E+000	0.0000000E+000	0.0000000E+000	-8.6696388E+001	0.0000000E+000	0.0000000E+000	0.0000000E+000	-3.3036125E+000	0.0000000E+000	0.0000000E+000	0.0000000E+000	3.3036125E+000	1.7324146E+001	8.6696388E+001
3.4010876E+002	1.6717517E+002	1.0985117E+001	1.6753571E+002	-3.7595134E+000	09/05/2018 13:41:56.1017	1.0777920E-002	2.2561047E-003	4.2598827E+001	1.8314381E-001	1.000000000000000E+000	11	2.1621890E-002	1.2905840E-004	5.9560323E-003	3.9137219E-004	5.9688771E-003	3.7595134E+000	1.8314383E+002	2.7871436E+003	2.7931543E+003	-8.6240486E+001	0.0000000E+000	0.0000000E+000	0.0000000E+000	8.6240486E+001	0.0000000E+000	0.0000000E+000	0.0000000E+000	-8.6240486E+001	0.0000000E+000	0.0000000E+000	0.0000000E+000	-3.7595134E+000	0.0000000E+000	0.0000000E+000	0.0000000E+000	3.7595134E+000	1.5218333E+001	8.6240486E+001
2.5443001E+002	1.6890347E+002	1.2669816E+001	1.6937801E+002	-4.2898469E+000	09/05/2018 13:41:57.7922	1.0768084E-002	2.2547995E-003	4.9372089E+001	2.7625370E-001	1.000000000000000E+000	11	2.1623783E-002	1.2766583E-004	5.8874139E-003	4.4162769E-004	5.9039542E-003	4.2898469E+000	2.7625378E+002	3.6827849E+003	3.6931316E+003	-8.5710152E+001	0.0000000E+000	0.0000000E+000	0.0000000E+000	8.5710152E+001	0.0000000E+000	0.0000000E+000	0.0000000E+000	-8.5710152E+001	0.0000000E+000	0.0000000E+000	0.0000000E+000	-4.2898469E+000	0.0000000E+000	0.0000000E+000	0.0000000E+000	4.2898469E+000	1.3331170E+001	8.5710152E+001
1.9054874E+002	1.7086661E+002	1.4600779E+001	1.7148930E+002	-4.8841357E+000	09/05/2018 13:41:59.4742	1.0771387E-002	2.2383900E-003	5.7205536E+001	4.1468278E-001	1.000000000000000E+000	11	2.1623628E-002	1.2609316E-004	5.8100936E-003	4.9648026E-004	5.8312677E-003	4.8841357E+000	4.1468246E+002	4.8528530E+003	4.8705386E+003	-8.5115868E+001	0.0000000E+000	0.0000000E+000	0.0000000E+000	8.5115868E+001	0.0000000E+000	0.0000000E+000	0.0000000E+000	-8.5115868E+001	0.0000000E+000	0.0000000E+000	0.0000000E+000	-4.8841357E+000	0.0000000E+000	0.0000000E+000	0.0000000E+000	4.8841357E+000	1.1702568E+001	8.5115868E+001
1.4249214E+002	1.7315622E+002	1.6897541E+001	1.7397874E+002	-5.5735912E+000	09/05/2018 13:42:01.1883	1.0768886E-002	2.2497647E-003	6.6100647E+001	6.2353432E-001	1.000000000000000E+000	11	2.1623194E-002	1.2428641E-004	5.7206545E-003	5.5825309E-004	5.7478286E-003	5.5735912E+000	6.2353455E+002	6.3896187E+003	6.4199707E+003	-8.4426407E+001	0.0000000E+000	0.0000000E+000	0.0000000E+000	8.4426407E+001	0.0000000E+000	0.0000000E+000	0.0000000E+000	-8.4426407E+001	0.0000000E+000	0.0000000E+000	0.0000000E+000	-5.5735912E+000	0.0000000E+000	0.0000000E+000	0.0000000E+000	5.5735912E+000	1.0247421E+001	8.4426407E+001
1.0667264E+002	1.7576091E+002	1.9440308E+001	1.7683275E+002	-6.3116336E+000	09/05/2018 13:42:02.8496	1.0768793E-002	2.2298126E-003	7.6747452E+001	9.2756605E-001	1.000000000000000E+000	11	2.1619702E-002	1.2226074E-004	5.6207837E-003	6.2169548E-004	5.6550610E-003	6.3116336E+000	9.2756549E+002	8.3861758E+003	8.4373174E+003	-8.3688370E+001	0.0000000E+000	0.0000000E+000	0.0000000E+000	8.3688370E+001	0.0000000E+000	0.0000000E+000	0.0000000E+000	-8.3688370E+001	0.0000000E+000	0.0000000E+000	0.0000000E+000	-6.3116336E+000	0.0000000E+000	0.0000000E+000	0.0000000E+000	6.3116336E+000	9.0410557E+000	8.3688370E+001
7.9821213E+001	1.7880412E+002	2.2485962E+001	1.8021246E+002	-7.1677475E+000	09/05/2018 13:42:04.5412	1.0775157E-002	2.2712087E-003	8.8672783E+001	1.3805230E+000	1.000000000000000E+000	11	2.1619136E-002	1.1996471E-004	5.5056405E-003	6.9237576E-004	5.5490057E-003	7.1677475E+000	1.3805231E+003	1.0977658E+004	1.1064123E+004	-8.2832253E+001	0.0000000E+000	0.0000000E+000	0.0000000E+000	8.2832253E+001	0.0000000E+000	0.0000000E+000	0.0000000E+000	-8.2832253E+001	0.0000000E+000	0.0000000E+000	0.0000000E+000	-7.1677475E+000	0.0000000E+000	0.0000000E+000	0.0000000E+000	7.1677475E+000	7.9518113E+000	8.2832253E+001
