EC-Lab ASCII FILE
Nb header lines : 66                          

Potentio Electrochemical Impedance Spectroscopy

Run on channel : 4 (SN 13229)
User : 
CE vs. WE compliance from -10 V to 10 V
Electrode connection : standard
Potential control : Ewe
Ewe ctrl range : min = -1.00 V, max = 1.00 V
Safety Limits :
	Do not start on E overload
Acquisition started on : 09/05/2018 13:40:36.000
Loaded Setting File : NONE
Saved on :
	File : RM_stacked second run S3_2_C04.mpr
	Directory : D:\Robert\Stacked cells\Second run 3% and 12% PVDF electrodes 12%compressed\
	Host : 10.5.5.6
Device : VMP3 (SN 0628)
Address : 10.5.5.5
EC-Lab for windows v11.17 (software)
Internet server v11.16 (firmware)
Command interpretor v11.16 (firmware)
Electrode material : 
Initial state : 
Electrolyte : 
Comments : 
Electrode surface area : 0.001 cm²
Characteristic mass : 0.001 g
Equivalent Weight : 0.000 g/eq.
Density : 0.000 g/cm3
Volume (V) : 0.000 m³
Text export
   Mode : Standard
   Time format : Elapsed
Cycle Definition : Charge/Discharge alternance
Mode                Single sine         
E (V)               0.0000              
vs.                 Eoc                 
tE (h:m:s)          0:00:3.0000         
record              1                   
dI                  0.000               
unit dI             mA                  
dt (s)              60.000              
fi                  200.000             
unit fi             kHz                 
ff                  10.000              
unit ff             mHz                 
Nd                  8                   
Points              per decade          
spacing             Logarithmic         
Va (mV)             20.0                
pw                  3.00                
Na                  5                   
corr                0                   
E range min (V)     -1.000              
E range max (V)     1.000               
I Range             Auto                
Bandwidth           5                   
nc cycles           0                   
goto Ns'            0                   
nr cycles           0                   
inc. cycle          0                   

freq/Hz	Re(Z)/Ohm	-Im(Z)/Ohm	|Z|/Ohm	Phase(Z)/deg	time/s	<Ewe>/V	<I>/mA	Cs/µF	Cp/µF	cycle number	I Range	|Ewe|/V	|I|/A	Re(Y)/Ohm-1	Im(Y)/Ohm-1	|Y|/Ohm-1	Phase(Y)/deg	Re(C)/nF	Im(C)/nF	|C|/nF	Phase(C)/deg	Re(M)	Im(M)	|M|	Phase(M)/deg	Re(Permittivity)	Im(Permittivity)	|Permittivity|	Phase(Permittivity)/deg	Re(Resistivity)/Ohm.cm	Im(Resistivity)/Ohm.cm	|Resistivity|/Ohm.cm	Phase(Resistivity)/deg	Re(Conductivity)/mS/cm	Im(Conductivity)/mS/cm	|Conductivity|/mS/cm	Phase(Conductivity)/deg	Tan(Delta)	Loss Angle(Delta)/deg	
2.0001948E+005	1.4909459E+002	-1.2600176E+000	1.4909991E+002	4.8420250E-001	09/05/2018 13:40:41.3331	-1.6833500E-004	1.6967143E-003	-6.3149685E-001	-4.5099285E-005	1.000000000000000E+000	11	1.8668683E-002	1.2520922E-004	6.7066727E-003	-5.6678957E-005	6.7069121E-003	-4.8420250E-001	-4.5099005E-002	5.3364801E+000	5.3366709E+000	-9.0484200E+001	0.0000000E+000	0.0000000E+000	0.0000000E+000	9.0484200E+001	0.0000000E+000	0.0000000E+000	0.0000000E+000	-9.0484200E+001	0.0000000E+000	0.0000000E+000	0.0000000E+000	4.8420250E-001	0.0000000E+000	0.0000000E+000	0.0000000E+000	-4.8420250E-001	1.1832738E+002	8.9515800E+001
1.4967770E+005	1.4828001E+002	-7.6228356E-001	1.4828197E+002	2.9454574E-001	09/05/2018 13:40:42.3981	-1.8301400E-004	1.6687403E-003	-1.3949109E+000	-3.6864036E-005	1.000000000000000E+000	11	2.0602331E-002	1.3894023E-004	6.7438195E-003	-3.4668883E-005	6.7439084E-003	-2.9454574E-001	-3.6864325E-002	7.1708221E+000	7.1709170E+000	-9.0294548E+001	0.0000000E+000	0.0000000E+000	0.0000000E+000	9.0294548E+001	0.0000000E+000	0.0000000E+000	0.0000000E+000	-9.0294548E+001	0.0000000E+000	0.0000000E+000	0.0000000E+000	2.9454574E-001	0.0000000E+000	0.0000000E+000	0.0000000E+000	-2.9454574E-001	1.9452081E+002	8.9705452E+001
1.1201170E+005	1.4783270E+002	-2.8857350E-001	1.4783298E+002	1.1184280E-001	09/05/2018 13:40:43.4631	-1.6943681E-004	1.7088371E-003	-4.9237990E+000	-1.8761630E-005	1.000000000000000E+000	11	2.0763904E-002	1.4045516E-004	6.7643775E-003	-1.3204252E-005	6.7643905E-003	-1.1184280E-001	-1.8761041E-002	9.6113548E+000	9.6113729E+000	-9.0111839E+001	0.0000000E+000	0.0000000E+000	0.0000000E+000	9.0111839E+001	0.0000000E+000	0.0000000E+000	0.0000000E+000	-9.0111839E+001	0.0000000E+000	0.0000000E+000	0.0000000E+000	1.1184280E-001	0.0000000E+000	0.0000000E+000	0.0000000E+000	-1.1184280E-001	5.1228784E+002	8.9888161E+001
8.3828102E+004	1.4766536E+002	5.9289828E-002	1.4766537E+002	-2.3005102E-002	09/05/2018 13:40:44.5281	-1.6958622E-004	1.6952227E-003	3.2022137E+001	5.1624202E-006	1.000000000000000E+000	11	2.0707699E-002	1.4023395E-004	6.7720679E-003	2.7190854E-006	6.7720683E-003	2.3005102E-002	5.1618647E-003	1.2857361E+001	1.2857362E+001	-8.9976997E+001	0.0000000E+000	0.0000000E+000	0.0000000E+000	8.9976997E+001	0.0000000E+000	0.0000000E+000	0.0000000E+000	-8.9976997E+001	0.0000000E+000	0.0000000E+000	0.0000000E+000	-2.3005102E-002	0.0000000E+000	0.0000000E+000	0.0000000E+000	2.3005102E-002	2.4905681E+003	8.9976997E+001
6.2734359E+004	1.4763985E+002	4.2334446E-001	1.4764046E+002	-1.6429022E-001	09/05/2018 13:40:45.5931	-1.5612107E-004	1.7465093E-003	5.9926763E+000	4.9271730E-005	1.000000000000000E+000	11	2.0599723E-002	1.3952628E-004	6.7731831E-003	1.9421514E-005	6.7732111E-003	1.6429022E-001	4.9272072E-002	1.7183336E+001	1.7183407E+001	-8.9835709E+001	0.0000000E+000	0.0000000E+000	0.0000000E+000	8.9835709E+001	0.0000000E+000	0.0000000E+000	0.0000000E+000	-8.9835709E+001	0.0000000E+000	0.0000000E+000	0.0000000E+000	-1.6429022E-001	0.0000000E+000	0.0000000E+000	0.0000000E+000	1.6429022E-001	3.4874637E+002	8.9835709E+001
4.6953109E+004	1.4767502E+002	6.9860458E-001	1.4767667E+002	-2.7104652E-001	09/05/2018 13:40:46.6581	-1.5275946E-004	1.7330816E-003	4.8520393E+000	1.0858340E-004	1.000000000000000E+000	11	2.0531995E-002	1.3903344E-004	6.7714746E-003	3.2033746E-005	6.7715505E-003	2.7104652E-001	1.0858460E-001	2.2952976E+001	2.2953234E+001	-8.9728951E+001	0.0000000E+000	0.0000000E+000	0.0000000E+000	8.9728951E+001	0.0000000E+000	0.0000000E+000	0.0000000E+000	-8.9728951E+001	0.0000000E+000	0.0000000E+000	0.0000000E+000	-2.7104652E-001	0.0000000E+000	0.0000000E+000	0.0000000E+000	2.7104652E-001	2.1138570E+002	8.9728951E+001
3.5136707E+004	1.4782893E+002	9.7835493E-001	1.4783217E+002	-3.7918687E-001	09/05/2018 13:40:47.7231	-1.4695132E-004	1.7506122E-003	4.6298046E+000	2.0277650E-004	1.000000000000000E+000	11	2.0401454E-002	1.3800415E-004	6.7642797E-003	4.4767057E-005	6.7644278E-003	3.7918687E-001	2.0277737E-001	3.0639423E+001	3.0640095E+001	-8.9620811E+001	0.0000000E+000	0.0000000E+000	0.0000000E+000	8.9620811E+001	0.0000000E+000	0.0000000E+000	0.0000000E+000	-8.9620811E+001	0.0000000E+000	0.0000000E+000	0.0000000E+000	-3.7918687E-001	0.0000000E+000	0.0000000E+000	0.0000000E+000	3.7918687E-001	1.5109949E+002	8.9620811E+001
2.6298820E+004	1.4796062E+002	1.2436745E+000	1.4796585E+002	-4.8158506E-001	09/05/2018 13:40:48.7871	-1.4476628E-004	1.7606830E-003	4.8660564E+000	3.4376970E-004	1.000000000000000E+000	11	2.0261234E-002	1.3693182E-004	6.7580771E-003	5.6804631E-005	6.7583160E-003	4.8158506E-001	3.4376803E-001	4.0898468E+001	4.0899914E+001	-8.9518417E+001	0.0000000E+000	0.0000000E+000	0.0000000E+000	8.9518417E+001	0.0000000E+000	0.0000000E+000	0.0000000E+000	-8.9518417E+001	0.0000000E+000	0.0000000E+000	0.0000000E+000	-4.8158506E-001	0.0000000E+000	0.0000000E+000	0.0000000E+000	4.8158506E-001	1.1897053E+002	8.9518417E+001
1.9677732E+004	1.4818845E+002	1.4797320E+000	1.4819583E+002	-5.7210654E-001	09/05/2018 13:40:49.7261	-1.4668985E-004	1.6489719E-003	5.4659042E+000	5.4494943E-004	1.000000000000000E+000	11	2.1947563E-002	1.4809838E-004	6.7474921E-003	6.7376910E-005	6.7478283E-003	5.7210654E-001	5.4494834E-001	5.4574211E+001	5.4576931E+001	-8.9427895E+001	0.0000000E+000	0.0000000E+000	0.0000000E+000	8.9427895E+001	0.0000000E+000	0.0000000E+000	0.0000000E+000	-8.9427895E+001	0.0000000E+000	0.0000000E+000	0.0000000E+000	-5.7210654E-001	0.0000000E+000	0.0000000E+000	0.0000000E+000	5.7210654E-001	1.0014546E+002	8.9427895E+001
1.4726557E+004	1.4837012E+002	1.8120279E+000	1.4838118E+002	-6.9971228E-001	09/05/2018 13:40:50.7911	-1.4497169E-004	1.6926117E-003	5.9642253E+000	8.8945945E-004	1.000000000000000E+000	11	2.0388646E-002	1.3740723E-004	6.7388969E-003	8.2301405E-005	6.7393994E-003	6.9971228E-001	8.8946247E-001	7.2829559E+001	7.2834991E+001	-8.9300285E+001	0.0000000E+000	0.0000000E+000	0.0000000E+000	8.9300285E+001	0.0000000E+000	0.0000000E+000	0.0000000E+000	-8.9300285E+001	0.0000000E+000	0.0000000E+000	0.0000000E+000	-6.9971228E-001	0.0000000E+000	0.0000000E+000	0.0000000E+000	6.9971228E-001	8.1880699E+001	8.9300285E+001
1.1025388E+004	1.4870787E+002	2.1358871E+000	1.4872321E+002	-8.2288116E-001	09/05/2018 13:40:51.7291	-1.5283415E-004	1.6875765E-003	6.7584634E+000	1.3939496E-003	1.000000000000000E+000	11	2.1023527E-002	1.4136010E-004	6.7232070E-003	9.6565243E-005	6.7239003E-003	8.2288116E-001	1.3939537E+000	9.7051605E+001	9.7061615E+001	-8.9177116E+001	0.0000000E+000	0.0000000E+000	0.0000000E+000	8.9177116E+001	0.0000000E+000	0.0000000E+000	0.0000000E+000	-8.9177116E+001	0.0000000E+000	0.0000000E+000	0.0000000E+000	-8.2288116E-001	0.0000000E+000	0.0000000E+000	0.0000000E+000	8.2288116E-001	6.9623466E+001	8.9177116E+001
8.3251924E+003	1.4906776E+002	2.4357352E+000	1.4908766E+002	-9.3611747E-001	09/05/2018 13:40:52.8216	-1.4088172E-004	1.7121941E-003	7.8486648E+000	2.0949445E-003	1.000000000000000E+000	11	2.1395758E-002	1.4351126E-004	6.7065679E-003	1.0958388E-004	6.7074629E-003	9.3611747E-001	2.0949483E+000	1.2821126E+002	1.2822838E+002	-8.9063881E+001	0.0000000E+000	0.0000000E+000	0.0000000E+000	8.9063881E+001	0.0000000E+000	0.0000000E+000	0.0000000E+000	-8.9063881E+001	0.0000000E+000	0.0000000E+000	0.0000000E+000	-9.3611747E-001	0.0000000E+000	0.0000000E+000	0.0000000E+000	9.3611747E-001	6.1200317E+001	8.9063881E+001
6.1954932E+003	1.4942030E+002	2.8495638E+000	1.4944748E+002	-1.0925435E+000	09/05/2018 13:40:54.2368	-1.3718395E-004	1.7017502E-003	9.0150032E+000	3.2775209E-003	1.000000000000000E+000	11	2.1620542E-002	1.4466983E-004	6.6900975E-003	1.2758546E-004	6.6913138E-003	1.0925435E+000	3.2775240E+000	1.7186075E+002	1.7189200E+002	-8.8907455E+001	0.0000000E+000	0.0000000E+000	0.0000000E+000	8.8907455E+001	0.0000000E+000	0.0000000E+000	0.0000000E+000	-8.8907455E+001	0.0000000E+000	0.0000000E+000	0.0000000E+000	-1.0925435E+000	0.0000000E+000	0.0000000E+000	0.0000000E+000	1.0925435E+000	5.2436203E+001	8.8907455E+001
4.6214780E+003	1.4993869E+002	3.2324955E+000	1.4997353E+002	-1.2350360E+000	09/05/2018 13:40:55.9247	-1.4157273E-004	1.7571397E-003	1.0653720E+001	4.9493476E-003	1.000000000000000E+000	11	2.1752054E-002	1.4503929E-004	6.6662948E-003	1.4371720E-004	6.6678436E-003	1.2350360E+000	4.9493594E+000	2.2957455E+002	2.2962790E+002	-8.8764961E+001	0.0000000E+000	0.0000000E+000	0.0000000E+000	8.8764961E+001	0.0000000E+000	0.0000000E+000	0.0000000E+000	-8.8764961E+001	0.0000000E+000	0.0000000E+000	0.0000000E+000	-1.2350360E+000	0.0000000E+000	0.0000000E+000	0.0000000E+000	1.2350360E+000	4.6384811E+001	8.8764961E+001
3.4561052E+003	1.5043999E+002	3.6789963E+000	1.5048497E+002	-1.4008839E+000	09/05/2018 13:40:57.6127	-1.3456935E-004	1.6954094E-003	1.2517103E+001	7.4812863E-003	1.000000000000000E+000	11	2.1820547E-002	1.4500151E-004	6.6431956E-003	1.6245875E-004	6.6451817E-003	1.4008839E+000	7.4812999E+000	3.0592163E+002	3.0601309E+002	-8.8599113E+001	0.0000000E+000	0.0000000E+000	0.0000000E+000	8.8599113E+001	0.0000000E+000	0.0000000E+000	0.0000000E+000	-8.8599113E+001	0.0000000E+000	0.0000000E+000	0.0000000E+000	-1.4008839E+000	0.0000000E+000	0.0000000E+000	0.0000000E+000	1.4008839E+000	4.0891582E+001	8.8599113E+001
2.5858269E+003	1.5108237E+002	4.1882319E+000	1.5114041E+002	-1.5879190E+000	09/05/2018 13:40:59.3007	-1.3034865E-004	1.7588182E-003	1.4695689E+001	1.1284705E-002	1.000000000000000E+000	11	2.1861728E-002	1.4464515E-004	6.6138236E-003	1.8334518E-004	6.6163642E-003	1.5879190E+000	1.1284719E+001	4.0707391E+002	4.0723029E+002	-8.8412079E+001	0.0000000E+000	0.0000000E+000	0.0000000E+000	8.8412079E+001	0.0000000E+000	0.0000000E+000	0.0000000E+000	-8.8412079E+001	0.0000000E+000	0.0000000E+000	0.0000000E+000	-1.5879190E+000	0.0000000E+000	0.0000000E+000	0.0000000E+000	1.5879190E+000	3.6073067E+001	8.8412079E+001
1.9356189E+003	1.5178674E+002	4.7778397E+000	1.5186192E+002	-1.8029221E+000	09/05/2018 13:41:00.9887	-1.3329940E-004	1.7422200E-003	1.7209518E+001	1.7034683E-002	1.000000000000000E+000	11	2.1880059E-002	1.4407863E-004	6.5816697E-003	2.0717330E-004	6.5849293E-003	1.8029221E+000	1.7034710E+001	5.4117322E+002	5.4144128E+002	-8.8197075E+001	0.0000000E+000	0.0000000E+000	0.0000000E+000	8.8197075E+001	0.0000000E+000	0.0000000E+000	0.0000000E+000	-8.8197075E+001	0.0000000E+000	0.0000000E+000	0.0000000E+000	-1.8029221E+000	0.0000000E+000	0.0000000E+000	0.0000000E+000	1.8029221E+000	3.1768908E+001	8.8197075E+001
1.4486094E+003	1.5252721E+002	5.4333439E+000	1.5262395E+002	-2.0401351E+000	09/05/2018 13:41:02.6780	-1.3484948E-004	1.7218920E-003	2.0220955E+001	2.5626581E-002	1.000000000000000E+000	11	2.1886760E-002	1.4340319E-004	6.5478985E-003	2.3325010E-004	6.5520518E-003	2.0401351E+000	2.5626621E+001	7.1940057E+002	7.1985687E+002	-8.7959862E+001	0.0000000E+000	0.0000000E+000	0.0000000E+000	8.7959862E+001	0.0000000E+000	0.0000000E+000	0.0000000E+000	-8.7959862E+001	0.0000000E+000	0.0000000E+000	0.0000000E+000	-2.0401351E+000	0.0000000E+000	0.0000000E+000	0.0000000E+000	2.0401351E+000	2.8072437E+001	8.7959862E+001
1.0839595E+003	1.5341034E+002	6.2228866E+000	1.5353650E+002	-2.3228536E+000	09/05/2018 13:41:04.3670	-1.3387835E-004	1.7319628E-003	2.3594742E+001	3.8759280E-002	1.000000000000000E+000	11	2.1895982E-002	1.4261092E-004	6.5077576E-003	2.6397852E-004	6.5131094E-003	2.3228536E+000	3.8759270E+001	9.5551709E+002	9.5630286E+002	-8.7677147E+001	0.0000000E+000	0.0000000E+000	0.0000000E+000	8.7677147E+001	0.0000000E+000	0.0000000E+000	0.0000000E+000	-8.7677147E+001	0.0000000E+000	0.0000000E+000	0.0000000E+000	-2.3228536E+000	0.0000000E+000	0.0000000E+000	0.0000000E+000	2.3228536E+000	2.4652601E+001	8.7677147E+001
8.1129767E+002	1.5438464E+002	7.0991993E+000	1.5454778E+002	-2.6328256E+000	09/05/2018 13:41:06.0534	-1.3484948E-004	1.6720974E-003	2.7633158E+001	5.8307409E-002	1.000000000000000E+000	11	2.1898177E-002	1.4169195E-004	6.4636609E-003	2.9722400E-004	6.4704912E-003	2.6328256E+000	5.8307453E+001	1.2679977E+003	1.2693375E+003	-8.7367172E+001	0.0000000E+000	0.0000000E+000	0.0000000E+000	8.7367172E+001	0.0000000E+000	0.0000000E+000	0.0000000E+000	-8.7367172E+001	0.0000000E+000	0.0000000E+000	0.0000000E+000	-2.6328256E+000	0.0000000E+000	0.0000000E+000	0.0000000E+000	2.6328256E+000	2.1746769E+001	8.7367172E+001
6.0752716E+002	1.5550690E+002	8.0998812E+000	1.5571770E+002	-2.9816682E+000	09/05/2018 13:41:07.7339	-1.4177815E-004	1.6666889E-003	3.2342663E+001	8.7509885E-002	1.000000000000000E+000	11	2.1899976E-002	1.4063896E-004	6.4131836E-003	3.3404323E-004	6.4218775E-003	2.9816682E+000	8.7509834E+001	1.6800729E+003	1.6823503E+003	-8.7018333E+001	0.0000000E+000	0.0000000E+000	0.0000000E+000	8.7018333E+001	0.0000000E+000	0.0000000E+000	0.0000000E+000	-8.7018333E+001	0.0000000E+000	0.0000000E+000	0.0000000E+000	-2.9816682E+000	0.0000000E+000	0.0000000E+000	0.0000000E+000	2.9816682E+000	1.9198664E+001	8.7018333E+001
4.5456351E+002	1.5676294E+002	9.3080311E+000	1.5703903E+002	-3.3980319E+000	09/05/2018 13:41:09.4229	-1.4088172E-004	1.6566180E-003	3.7615578E+001	1.3215031E-001	1.000000000000000E+000	11	2.1898620E-002	1.3944699E-004	6.3566482E-003	3.7743535E-004	6.3678436E-003	3.3980319E+000	1.3215034E+002	2.2256338E+003	2.2295537E+003	-8.6601967E+001	0.0000000E+000	0.0000000E+000	0.0000000E+000	8.6601967E+001	0.0000000E+000	0.0000000E+000	0.0000000E+000	-8.6601967E+001	0.0000000E+000	0.0000000E+000	0.0000000E+000	-3.3980319E+000	0.0000000E+000	0.0000000E+000	0.0000000E+000	3.3980319E+000	1.6841686E+001	8.6601967E+001
3.4010876E+002	1.5825542E+002	1.0682260E+001	1.5861554E+002	-3.8616140E+000	09/05/2018 13:41:11.1097	-1.4050820E-004	1.6730296E-003	4.3806564E+001	1.9868907E-001	1.000000000000000E+000	11	2.1902628E-002	1.3808627E-004	6.2902388E-003	4.2459182E-004	6.3045523E-003	3.8616140E+000	1.9868889E+002	2.9435366E+003	2.9502349E+003	-8.6138390E+001	0.0000000E+000	0.0000000E+000	0.0000000E+000	8.6138390E+001	0.0000000E+000	0.0000000E+000	0.0000000E+000	-8.6138390E+001	0.0000000E+000	0.0000000E+000	0.0000000E+000	-3.8616140E+000	0.0000000E+000	0.0000000E+000	0.0000000E+000	3.8616140E+000	1.4814789E+001	8.6138390E+001
2.5443001E+002	1.5990344E+002	1.2306729E+001	1.6037633E+002	-4.4010081E+000	09/05/2018 13:41:12.8002	-1.4136730E-004	1.7276731E-003	5.0828716E+001	2.9930496E-001	1.000000000000000E+000	11	2.1899840E-002	1.3655282E-004	6.2169484E-003	4.7847815E-004	6.2353341E-003	4.4010081E+000	2.9930502E+002	3.8889209E+003	3.9004216E+003	-8.5598991E+001	0.0000000E+000	0.0000000E+000	0.0000000E+000	8.5598991E+001	0.0000000E+000	0.0000000E+000	0.0000000E+000	-8.5598991E+001	0.0000000E+000	0.0000000E+000	0.0000000E+000	-4.4010081E+000	0.0000000E+000	0.0000000E+000	0.0000000E+000	4.4010081E+000	1.2993172E+001	8.5598991E+001
1.9054874E+002	1.6177878E+002	1.4139215E+001	1.6239548E+002	-4.9948702E+000	09/05/2018 13:41:14.4812	-1.3716528E-004	1.6929846E-003	5.9072964E+001	4.4780761E-001	1.000000000000000E+000	11	2.1897973E-002	1.3484349E-004	6.1344230E-003	5.3613901E-004	6.1578071E-003	4.9948702E+000	4.4780789E+002	5.1237480E+003	5.1432798E+003	-8.5005127E+001	0.0000000E+000	0.0000000E+000	0.0000000E+000	8.5005127E+001	0.0000000E+000	0.0000000E+000	0.0000000E+000	-8.5005127E+001	0.0000000E+000	0.0000000E+000	0.0000000E+000	-4.9948702E+000	0.0000000E+000	0.0000000E+000	0.0000000E+000	4.9948702E+000	1.1441851E+001	8.5005127E+001
1.4249214E+002	1.6403806E+002	1.6364668E+001	1.6485231E+002	-5.6970582E+000	09/05/2018 13:41:16.1953	-1.3899549E-004	1.6922386E-003	6.8253044E+001	6.7258370E-001	1.000000000000000E+000	11	2.1898935E-002	1.3283972E-004	6.0360734E-003	6.0216722E-004	6.0660355E-003	5.6970582E+000	6.7258392E+002	6.7419229E+003	6.7753887E+003	-8.4302940E+001	0.0000000E+000	0.0000000E+000	0.0000000E+000	8.4302940E+001	0.0000000E+000	0.0000000E+000	0.0000000E+000	-8.4302940E+001	0.0000000E+000	0.0000000E+000	0.0000000E+000	-5.6970582E+000	0.0000000E+000	0.0000000E+000	0.0000000E+000	5.6970582E+000	1.0023916E+001	8.4302940E+001
1.0667264E+002	1.6659372E+002	1.8855783E+001	1.6765741E+002	-6.4574981E+000	09/05/2018 13:41:17.8576	-1.4035880E-004	1.6752674E-003	7.9126602E+001	1.0008435E+000	1.000000000000000E+000	11	2.1900857E-002	1.3062863E-004	5.9267026E-003	6.7080936E-004	5.9645441E-003	6.4574981E+000	1.0008432E+003	8.8426035E+003	8.8990635E+003	-8.3542503E+001	0.0000000E+000	0.0000000E+000	0.0000000E+000	8.3542503E+001	0.0000000E+000	0.0000000E+000	0.0000000E+000	-8.3542503E+001	0.0000000E+000	0.0000000E+000	0.0000000E+000	-6.4574981E+000	0.0000000E+000	0.0000000E+000	0.0000000E+000	6.4574981E+000	8.8351526E+000	8.3542503E+001
7.9821213E+001	1.6956059E+002	2.1754650E+001	1.7095045E+002	-7.3111162E+000	09/05/2018 13:41:19.5482	-1.3669838E-004	1.6597880E-003	9.1653641E+001	1.4842716E+000	1.000000000000000E+000	11	2.1897020E-002	1.2808986E-004	5.8020893E-003	7.4440899E-004	5.8496483E-003	7.3111162E+000	1.4842723E+003	1.1568745E+004	1.1663572E+004	-8.2688881E+001	0.0000000E+000	0.0000000E+000	0.0000000E+000	8.2688881E+001	0.0000000E+000	0.0000000E+000	0.0000000E+000	-8.2688881E+001	0.0000000E+000	0.0000000E+000	0.0000000E+000	-7.3111162E+000	0.0000000E+000	0.0000000E+000	0.0000000E+000	7.3111162E+000	7.7942228E+000	8.2688881E+001
