EC-Lab ASCII FILE
Nb header lines : 66                          

Potentio Electrochemical Impedance Spectroscopy

Run on channel : 6 (SN 13224)
User : 
CE vs. WE compliance from -10 V to 10 V
Electrode connection : standard
Potential control : Ewe
Ewe ctrl range : min = -1.00 V, max = 1.00 V
Safety Limits :
	Do not start on E overload
Acquisition started on : 09/05/2018 15:23:46.000
Loaded Setting File : NONE
Saved on :
	File : RM_stacked second run DS_3+12_2_C06.mpr
	Directory : D:\Robert\Stacked cells\Second run 3% and 12% PVDF electrodes 12%compressed\
	Host : 10.5.5.6
Device : VMP3 (SN 0628)
Address : 10.5.5.5
EC-Lab for windows v11.17 (software)
Internet server v11.16 (firmware)
Command interpretor v11.16 (firmware)
Electrode material : 
Initial state : 
Electrolyte : 
Comments : 
Electrode surface area : 0.001 cm²
Characteristic mass : 0.001 g
Equivalent Weight : 0.000 g/eq.
Density : 0.000 g/cm3
Volume (V) : 0.000 m³
Text export
   Mode : Standard
   Time format : Elapsed
Cycle Definition : Charge/Discharge alternance
Mode                Single sine         
E (V)               0.0000              
vs.                 Eoc                 
tE (h:m:s)          0:00:3.0000         
record              1                   
dI                  0.000               
unit dI             mA                  
dt (s)              60.000              
fi                  200.000             
unit fi             kHz                 
ff                  10.000              
unit ff             mHz                 
Nd                  8                   
Points              per decade          
spacing             Logarithmic         
Va (mV)             20.0                
pw                  3.00                
Na                  5                   
corr                0                   
E range min (V)     -1.000              
E range max (V)     1.000               
I Range             Auto                
Bandwidth           5                   
nc cycles           0                   
goto Ns'            0                   
nr cycles           0                   
inc. cycle          0                   

freq/Hz	Re(Z)/Ohm	-Im(Z)/Ohm	|Z|/Ohm	Phase(Z)/deg	time/s	<Ewe>/V	<I>/mA	Cs/µF	Cp/µF	cycle number	I Range	|Ewe|/V	|I|/A	Re(Y)/Ohm-1	Im(Y)/Ohm-1	|Y|/Ohm-1	Phase(Y)/deg	Re(C)/nF	Im(C)/nF	|C|/nF	Phase(C)/deg	Re(M)	Im(M)	|M|	Phase(M)/deg	Re(Permittivity)	Im(Permittivity)	|Permittivity|	Phase(Permittivity)/deg	Re(Resistivity)/Ohm.cm	Im(Resistivity)/Ohm.cm	|Resistivity|/Ohm.cm	Phase(Resistivity)/deg	Re(Conductivity)/mS/cm	Im(Conductivity)/mS/cm	|Conductivity|/mS/cm	Phase(Conductivity)/deg	Tan(Delta)	Loss Angle(Delta)/deg	
2.0001948E+005	1.3856848E+002	2.5629750E-001	1.3856873E+002	-1.0597466E-001	09/05/2018 15:23:51.1871	-1.2696949E-001	-7.9918858E-003	3.1045845E+000	1.0620911E-005	1.000000000000000E+000	11	1.8078351E-002	1.3046488E-004	7.2166231E-003	1.3347930E-005	7.2166356E-003	1.0597466E-001	1.0620673E-002	5.7422466E+000	5.7422566E+000	-8.9894028E+001	0.0000000E+000	0.0000000E+000	0.0000000E+000	8.9894028E+001	0.0000000E+000	0.0000000E+000	0.0000000E+000	-8.9894028E+001	0.0000000E+000	0.0000000E+000	0.0000000E+000	-1.0597466E-001	0.0000000E+000	0.0000000E+000	0.0000000E+000	1.0597466E-001	5.4065485E+002	8.9894028E+001
1.4967770E+005	1.3798454E+002	5.4798287E-001	1.3798563E+002	-2.2753955E-001	09/05/2018 15:23:52.2511	-1.2547670E-001	2.7810670E-003	1.9404212E+000	3.0602881E-005	1.000000000000000E+000	11	2.0527069E-002	1.4876237E-004	7.2470745E-003	2.8780563E-005	7.2471318E-003	2.2753955E-001	3.0602813E-002	7.7059422E+000	7.7060027E+000	-8.9772461E+001	0.0000000E+000	0.0000000E+000	0.0000000E+000	8.9772461E+001	0.0000000E+000	0.0000000E+000	0.0000000E+000	-8.9772461E+001	0.0000000E+000	0.0000000E+000	0.0000000E+000	-2.2753955E-001	0.0000000E+000	0.0000000E+000	0.0000000E+000	2.2753955E-001	2.5180449E+002	8.9772461E+001
1.1201170E+005	1.3773758E+002	8.8593054E-001	1.3774043E+002	-3.6852238E-001	09/05/2018 15:23:53.3151	-1.2548386E-001	2.7480579E-003	1.6038253E+000	6.6348868E-005	1.000000000000000E+000	11	2.0820297E-002	1.5115604E-004	7.2598825E-003	4.6695692E-005	7.2600325E-003	3.6852238E-001	6.6348925E-002	1.0315407E+001	1.0315620E+001	-8.9631477E+001	0.0000000E+000	0.0000000E+000	0.0000000E+000	8.9631477E+001	0.0000000E+000	0.0000000E+000	0.0000000E+000	-8.9631477E+001	0.0000000E+000	0.0000000E+000	0.0000000E+000	-3.6852238E-001	0.0000000E+000	0.0000000E+000	0.0000000E+000	3.6852238E-001	1.5547221E+002	8.9631477E+001
8.3828102E+004	1.3774011E+002	1.2026160E+000	1.3774536E+002	-5.0023967E-001	09/05/2018 15:23:54.3801	-1.2547171E-001	2.7818130E-003	1.5787143E+000	1.2033820E-004	1.000000000000000E+000	11	2.0684270E-002	1.5016310E-004	7.2594960E-003	6.3383028E-005	7.2597726E-003	5.0023967E-001	1.2033745E-001	1.3782785E+001	1.3783311E+001	-8.9499763E+001	0.0000000E+000	0.0000000E+000	0.0000000E+000	8.9499763E+001	0.0000000E+000	0.0000000E+000	0.0000000E+000	-8.9499763E+001	0.0000000E+000	0.0000000E+000	0.0000000E+000	-5.0023967E-001	0.0000000E+000	0.0000000E+000	0.0000000E+000	5.0023967E-001	1.1453374E+002	8.9499763E+001
6.2734359E+004	1.3781506E+002	1.5559945E+000	1.3782385E+002	-6.4686781E-001	09/05/2018 15:23:55.4441	-1.2547803E-001	2.7573826E-003	1.6304468E+000	2.0781360E-004	1.000000000000000E+000	11	2.0635225E-002	1.4972173E-004	7.2551756E-003	8.1914215E-005	7.2556380E-003	6.4686781E-001	2.0781298E-001	1.8406136E+001	1.8407309E+001	-8.9353134E+001	0.0000000E+000	0.0000000E+000	0.0000000E+000	8.9353134E+001	0.0000000E+000	0.0000000E+000	0.0000000E+000	-8.9353134E+001	0.0000000E+000	0.0000000E+000	0.0000000E+000	-6.4686781E-001	0.0000000E+000	0.0000000E+000	0.0000000E+000	6.4686781E-001	8.8570404E+001	8.9353134E+001
4.6953109E+004	1.3801721E+002	1.8998626E+000	1.3803029E+002	-7.8864974E-001	09/05/2018 15:23:56.5091	-1.2547421E-001	2.7792023E-003	1.7841589E+000	3.3800970E-004	1.000000000000000E+000	11	2.0551037E-002	1.4888788E-004	7.2441003E-003	9.9717967E-005	7.2447867E-003	7.8864974E-001	3.3801007E-001	2.4555017E+001	2.4557344E+001	-8.9211349E+001	0.0000000E+000	0.0000000E+000	0.0000000E+000	8.9211349E+001	0.0000000E+000	0.0000000E+000	0.0000000E+000	-8.9211349E+001	0.0000000E+000	0.0000000E+000	0.0000000E+000	-7.8864974E-001	0.0000000E+000	0.0000000E+000	0.0000000E+000	7.8864974E-001	7.2645889E+001	8.9211349E+001
3.5136707E+004	1.3828300E+002	2.2806609E+000	1.3830180E+002	-9.4487685E-001	09/05/2018 15:23:57.5731	-1.2548018E-001	2.7473117E-003	1.9860876E+000	5.4008747E-004	1.000000000000000E+000	11	2.0353869E-002	1.4716995E-004	7.2295805E-003	1.1923535E-004	7.2305636E-003	9.4487685E-001	5.4008794E-001	3.2747051E+001	3.2751503E+001	-8.9055122E+001	0.0000000E+000	0.0000000E+000	0.0000000E+000	8.9055122E+001	0.0000000E+000	0.0000000E+000	0.0000000E+000	-8.9055122E+001	0.0000000E+000	0.0000000E+000	0.0000000E+000	-9.4487685E-001	0.0000000E+000	0.0000000E+000	0.0000000E+000	9.4487685E-001	6.0632866E+001	8.9055122E+001
2.6298820E+004	1.3862862E+002	2.6257670E+000	1.3865349E+002	-1.0851105E+000	09/05/2018 15:23:58.6371	-1.2548544E-001	2.7525334E-003	2.3047705E+000	8.2656776E-004	1.000000000000000E+000	11	2.0300362E-002	1.4641076E-004	7.2109303E-003	1.3658236E-004	7.2122240E-003	1.0851105E+000	8.2657003E-001	4.3639038E+001	4.3646866E+001	-8.8914886E+001	0.0000000E+000	0.0000000E+000	0.0000000E+000	8.8914886E+001	0.0000000E+000	0.0000000E+000	0.0000000E+000	-8.8914886E+001	0.0000000E+000	0.0000000E+000	0.0000000E+000	-1.0851105E+000	0.0000000E+000	0.0000000E+000	0.0000000E+000	1.0851105E+000	5.2795475E+001	8.8914886E+001
1.9677732E+004	1.3906920E+002	3.0711977E+000	1.3910310E+002	-1.2651118E+000	09/05/2018 15:23:59.7021	-1.2547617E-001	2.8069895E-003	2.6335242E+000	1.2837463E-003	1.000000000000000E+000	11	2.0267764E-002	1.4570318E-004	7.1871597E-003	1.5872091E-004	7.1889120E-003	1.2651118E+000	1.2837485E+000	5.8130280E+001	5.8144451E+001	-8.8734886E+001	0.0000000E+000	0.0000000E+000	0.0000000E+000	8.8734886E+001	0.0000000E+000	0.0000000E+000	0.0000000E+000	-8.8734886E+001	0.0000000E+000	0.0000000E+000	0.0000000E+000	-1.2651118E+000	0.0000000E+000	0.0000000E+000	0.0000000E+000	1.2651118E+000	4.5281746E+001	8.8734886E+001
1.4726557E+004	1.3960907E+002	3.5192494E+000	1.3965341E+002	-1.4439998E+000	09/05/2018 15:24:00.6401	-1.2548496E-001	2.8032598E-003	3.0709226E+000	1.9501402E-003	1.000000000000000E+000	11	2.1373268E-002	1.5304508E-004	7.1583102E-003	1.8044587E-004	7.1605840E-003	1.4439998E+000	1.9501411E+000	7.7362312E+001	7.7386887E+001	-8.8556000E+001	0.0000000E+000	0.0000000E+000	0.0000000E+000	8.8556000E+001	0.0000000E+000	0.0000000E+000	0.0000000E+000	-8.8556000E+001	0.0000000E+000	0.0000000E+000	0.0000000E+000	-1.4439998E+000	0.0000000E+000	0.0000000E+000	0.0000000E+000	1.4439998E+000	3.9670128E+001	8.8556000E+001
1.1025388E+004	1.4022803E+002	3.9757135E+000	1.4028438E+002	-1.6240020E+000	09/05/2018 15:24:01.7051	-1.2547494E-001	2.8194843E-003	3.6308742E+000	2.9162364E-003	1.000000000000000E+000	11	2.0237541E-002	1.4426083E-004	7.1255141E-003	2.0202096E-004	7.1283774E-003	1.6240020E+000	2.9162338E+000	1.0285905E+002	1.0290038E+002	-8.8375999E+001	0.0000000E+000	0.0000000E+000	0.0000000E+000	8.8375999E+001	0.0000000E+000	0.0000000E+000	0.0000000E+000	-8.8375999E+001	0.0000000E+000	0.0000000E+000	0.0000000E+000	-1.6240020E+000	0.0000000E+000	0.0000000E+000	0.0000000E+000	1.6240020E+000	3.5271160E+001	8.8375999E+001
8.3251924E+003	1.4096814E+002	4.5021935E+000	1.4104001E+002	-1.8292717E+000	09/05/2018 15:24:02.7966	-1.2546702E-001	2.8601401E-003	4.2462125E+000	4.3267854E-003	1.000000000000000E+000	11	2.0609016E-002	1.4612178E-004	7.0865736E-003	2.2632862E-004	7.0901867E-003	1.8292717E+000	4.3267798E+000	1.3547594E+002	1.3554501E+002	-8.8170731E+001	0.0000000E+000	0.0000000E+000	0.0000000E+000	8.8170731E+001	0.0000000E+000	0.0000000E+000	0.0000000E+000	-8.8170731E+001	0.0000000E+000	0.0000000E+000	0.0000000E+000	-1.8292717E+000	0.0000000E+000	0.0000000E+000	0.0000000E+000	1.8292717E+000	3.1310991E+001	8.8170731E+001
6.1954932E+003	1.4185556E+002	5.0228376E+000	1.4194446E+002	-2.0278883E+000	09/05/2018 15:24:04.2118	-1.2547302E-001	2.6872610E-003	5.1144052E+000	6.4040767E-003	1.000000000000000E+000	11	2.0834565E-002	1.4677970E-004	7.0405970E-003	2.4929427E-004	7.0450092E-003	2.0278883E+000	6.4040685E+000	1.8086469E+002	1.8097803E+002	-8.7972115E+001	0.0000000E+000	0.0000000E+000	0.0000000E+000	8.7972115E+001	0.0000000E+000	0.0000000E+000	0.0000000E+000	-8.7972115E+001	0.0000000E+000	0.0000000E+000	0.0000000E+000	-2.0278883E+000	0.0000000E+000	0.0000000E+000	0.0000000E+000	2.0278883E+000	2.8242115E+001	8.7972115E+001
4.6214780E+003	1.4283791E+002	5.5501876E+000	1.4294569E+002	-2.2251966E+000	09/05/2018 15:24:05.8997	-1.2547123E-001	2.7402251E-003	6.2048540E+000	9.3541583E-003	1.000000000000000E+000	11	2.0960925E-002	1.4663558E-004	6.9903885E-003	2.7162235E-004	6.9956635E-003	2.2251966E+000	9.3541594E+000	2.4073572E+002	2.4091739E+002	-8.7774803E+001	0.0000000E+000	0.0000000E+000	0.0000000E+000	8.7774803E+001	0.0000000E+000	0.0000000E+000	0.0000000E+000	-8.7774803E+001	0.0000000E+000	0.0000000E+000	0.0000000E+000	-2.2251966E+000	0.0000000E+000	0.0000000E+000	0.0000000E+000	2.2251966E+000	2.5735689E+001	8.7774803E+001
3.4561052E+003	1.4386699E+002	6.0427680E+000	1.4399384E+002	-2.4051502E+000	09/05/2018 15:24:07.5877	-1.2547614E-001	2.7307139E-003	7.6207418E+000	1.3420889E-002	1.000000000000000E+000	11	2.1026168E-002	1.4602131E-004	6.9386237E-003	2.9143930E-004	6.9447416E-003	2.4051502E+000	1.3420896E+001	3.1952621E+002	3.1980795E+002	-8.7594849E+001	0.0000000E+000	0.0000000E+000	0.0000000E+000	8.7594849E+001	0.0000000E+000	0.0000000E+000	0.0000000E+000	-8.7594849E+001	0.0000000E+000	0.0000000E+000	0.0000000E+000	-2.4051502E+000	0.0000000E+000	0.0000000E+000	0.0000000E+000	2.4051502E+000	2.3808126E+001	8.7594849E+001
2.5858269E+003	1.4502126E+002	6.5672479E+000	1.4516988E+002	-2.5928524E+000	09/05/2018 15:24:09.2747	-1.2547198E-001	2.7532794E-003	9.3721075E+000	1.9180110E-002	1.000000000000000E+000	11	2.1065190E-002	1.4510717E-004	6.8814289E-003	3.1162365E-004	6.8884813E-003	2.5928524E+000	1.9180090E+001	4.2354477E+002	4.2397882E+002	-8.7407150E+001	0.0000000E+000	0.0000000E+000	0.0000000E+000	8.7407150E+001	0.0000000E+000	0.0000000E+000	0.0000000E+000	-8.7407150E+001	0.0000000E+000	0.0000000E+000	0.0000000E+000	-2.5928524E+000	0.0000000E+000	0.0000000E+000	0.0000000E+000	2.5928524E+000	2.2082500E+001	8.7407150E+001
1.9356189E+003	1.4614607E+002	7.1031680E+000	1.4631859E+002	-2.7825692E+000	09/05/2018 15:24:10.9627	-1.2546627E-001	2.7385463E-003	1.1575725E+001	2.7280563E-002	1.000000000000000E+000	11	2.1077797E-002	1.4405412E-004	6.8263435E-003	3.3178221E-004	6.8344017E-003	2.7825692E+000	2.7280575E+001	5.6129144E+002	5.6195404E+002	-8.7217430E+001	0.0000000E+000	0.0000000E+000	0.0000000E+000	8.7217430E+001	0.0000000E+000	0.0000000E+000	0.0000000E+000	-8.7217430E+001	0.0000000E+000	0.0000000E+000	0.0000000E+000	-2.7825692E+000	0.0000000E+000	0.0000000E+000	0.0000000E+000	2.7825692E+000	2.0574774E+001	8.7217430E+001
1.4486094E+003	1.4737135E+002	7.7439871E+000	1.4757468E+002	-3.0079799E+000	09/05/2018 15:24:12.6520	-1.2546954E-001	2.6788686E-003	1.4187447E+001	3.9066974E-002	1.000000000000000E+000	11	2.1087723E-002	1.4289527E-004	6.7668944E-003	3.5558298E-004	6.7762304E-003	3.0079799E+000	3.9066982E+001	7.4346106E+002	7.4448682E+002	-8.6992020E+001	0.0000000E+000	0.0000000E+000	0.0000000E+000	8.6992020E+001	0.0000000E+000	0.0000000E+000	0.0000000E+000	-8.6992020E+001	0.0000000E+000	0.0000000E+000	0.0000000E+000	-3.0079799E+000	0.0000000E+000	0.0000000E+000	0.0000000E+000	3.0079799E+000	1.9030424E+001	8.6992020E+001
1.0839595E+003	1.4859355E+002	8.4233608E+000	1.4883211E+002	-3.2444682E+000	09/05/2018 15:24:14.3410	-1.2547038E-001	2.7012478E-003	1.7430975E+001	5.5834062E-002	1.000000000000000E+000	11	2.1088241E-002	1.4169147E-004	6.7082103E-003	3.8027007E-004	6.7189801E-003	3.2444682E+000	5.5834072E+001	9.8494910E+002	9.8653040E+002	-8.6755531E+001	0.0000000E+000	0.0000000E+000	0.0000000E+000	8.6755531E+001	0.0000000E+000	0.0000000E+000	0.0000000E+000	-8.6755531E+001	0.0000000E+000	0.0000000E+000	0.0000000E+000	-3.2444682E+000	0.0000000E+000	0.0000000E+000	0.0000000E+000	3.2444682E+000	1.7640650E+001	8.6755531E+001
8.1129767E+002	1.4992255E+002	9.2674227E+000	1.5020871E+002	-3.5372226E+000	09/05/2018 15:24:16.0274	-1.2547614E-001	2.6738334E-003	2.1168055E+001	8.0576546E-002	1.000000000000000E+000	11	2.1092666E-002	1.4042239E-004	6.6447207E-003	4.1074163E-004	6.6574034E-003	3.5372226E+000	8.0576576E+001	1.3035168E+003	1.3060049E+003	-8.6462776E+001	0.0000000E+000	0.0000000E+000	0.0000000E+000	8.6462776E+001	0.0000000E+000	0.0000000E+000	0.0000000E+000	-8.6462776E+001	0.0000000E+000	0.0000000E+000	0.0000000E+000	-3.5372226E+000	0.0000000E+000	0.0000000E+000	0.0000000E+000	3.5372226E+000	1.6177372E+001	8.6462776E+001
6.0752716E+002	1.5128719E+002	1.0296638E+001	1.5163718E+002	-3.8935583E+000	09/05/2018 15:24:17.7069	-1.2547876E-001	2.6471647E-003	2.5442455E+001	1.1731093E-001	1.000000000000000E+000	11	2.1089839E-002	1.3908092E-004	6.5794680E-003	4.4779998E-004	6.5946891E-003	3.8935583E+000	1.1731082E+002	1.7236346E+003	1.7276221E+003	-8.6106445E+001	0.0000000E+000	0.0000000E+000	0.0000000E+000	8.6106445E+001	0.0000000E+000	0.0000000E+000	0.0000000E+000	-8.6106445E+001	0.0000000E+000	0.0000000E+000	0.0000000E+000	-3.8935583E+000	0.0000000E+000	0.0000000E+000	0.0000000E+000	3.8935583E+000	1.4692873E+001	8.6106445E+001
4.5456351E+002	1.5286852E+002	1.1551251E+001	1.5330432E+002	-4.3212466E+000	09/05/2018 15:24:19.3959	-1.2547632E-001	2.6779361E-003	3.0310740E+001	1.7208610E-001	1.000000000000000E+000	11	2.1093111E-002	1.3758980E-004	6.5044304E-003	4.9149629E-004	6.5229735E-003	4.3212466E+000	1.7208597E+002	2.2773765E+003	2.2838689E+003	-8.5678757E+001	0.0000000E+000	0.0000000E+000	0.0000000E+000	8.5678757E+001	0.0000000E+000	0.0000000E+000	0.0000000E+000	-8.5678757E+001	0.0000000E+000	0.0000000E+000	0.0000000E+000	-4.3212466E+000	0.0000000E+000	0.0000000E+000	0.0000000E+000	4.3212466E+000	1.3233935E+001	8.5678757E+001
3.4010876E+002	1.5453400E+002	1.3125196E+001	1.5509038E+002	-4.8547106E+000	09/05/2018 15:24:21.0837	-1.2547784E-001	2.6184449E-003	3.5653038E+001	2.5535148E-001	1.000000000000000E+000	11	2.1090582E-002	1.3598897E-004	6.4247213E-003	5.4567750E-004	6.4478531E-003	4.8547106E+000	2.5535162E+002	3.0064683E+003	3.0172927E+003	-8.5145287E+001	0.0000000E+000	0.0000000E+000	0.0000000E+000	8.5145287E+001	0.0000000E+000	0.0000000E+000	0.0000000E+000	-8.5145287E+001	0.0000000E+000	0.0000000E+000	0.0000000E+000	-4.8547106E+000	0.0000000E+000	0.0000000E+000	0.0000000E+000	4.8547106E+000	1.1773844E+001	8.5145287E+001
2.5443001E+002	1.5645319E+002	1.4953838E+001	1.5716621E+002	-5.4597602E+000	09/05/2018 15:24:22.7732	-1.2547402E-001	2.6660010E-003	4.1831085E+001	3.7869197E-001	1.000000000000000E+000	11	2.1091135E-002	1.3419637E-004	6.3338247E-003	6.0538866E-004	6.3626906E-003	5.4597602E+000	3.7869214E+002	3.9620308E+003	3.9800874E+003	-8.4540237E+001	0.0000000E+000	0.0000000E+000	0.0000000E+000	8.4540237E+001	0.0000000E+000	0.0000000E+000	0.0000000E+000	-8.4540237E+001	0.0000000E+000	0.0000000E+000	0.0000000E+000	-5.4597602E+000	0.0000000E+000	0.0000000E+000	0.0000000E+000	5.4597602E+000	1.0462410E+001	8.4540237E+001
1.9054874E+002	1.5863528E+002	1.7216419E+001	1.5956679E+002	-6.1939716E+000	09/05/2018 15:24:24.4552	-1.2547018E-001	2.6954664E-003	4.8514462E+001	5.6477034E-001	1.000000000000000E+000	11	2.1089252E-002	1.3216567E-004	6.2303836E-003	6.7617302E-004	6.2669683E-003	6.1939716E+000	5.6477020E+002	5.2038989E+003	5.2344561E+003	-8.3806030E+001	0.0000000E+000	0.0000000E+000	0.0000000E+000	8.3806030E+001	0.0000000E+000	0.0000000E+000	0.0000000E+000	-8.3806030E+001	0.0000000E+000	0.0000000E+000	0.0000000E+000	-6.1939716E+000	0.0000000E+000	0.0000000E+000	0.0000000E+000	6.1939716E+000	9.2141857E+000	8.3806030E+001
1.4249214E+002	1.6117119E+002	1.9949766E+001	1.6240118E+002	-7.0561790E+000	09/05/2018 15:24:26.1693	-1.2547983E-001	2.6102387E-003	5.5987545E+001	8.4486759E-001	1.000000000000000E+000	11	2.1085965E-002	1.2983874E-004	6.1109541E-003	7.5641373E-004	6.1575905E-003	7.0561790E+000	8.4486798E+002	6.8255591E+003	6.8776494E+003	-8.2943817E+001	0.0000000E+000	0.0000000E+000	0.0000000E+000	8.2943817E+001	0.0000000E+000	0.0000000E+000	0.0000000E+000	-8.2943817E+001	0.0000000E+000	0.0000000E+000	0.0000000E+000	-7.0561790E+000	0.0000000E+000	0.0000000E+000	0.0000000E+000	7.0561790E+000	8.0788507E+000	8.2943817E+001
1.0667264E+002	1.6411566E+002	2.3147625E+001	1.6574005E+002	-8.0283012E+000	09/05/2018 15:24:27.8316	-1.2548015E-001	2.6419428E-003	6.4455605E+001	1.2572411E+000	1.000000000000000E+000	11	2.1086680E-002	1.2722742E-004	5.9744110E-003	8.4265822E-004	6.0335444E-003	8.0283012E+000	1.2572417E+003	8.9137861E+003	9.0020127E+003	-8.1971695E+001	0.0000000E+000	0.0000000E+000	0.0000000E+000	8.1971695E+001	0.0000000E+000	0.0000000E+000	0.0000000E+000	-8.1971695E+001	0.0000000E+000	0.0000000E+000	0.0000000E+000	-8.0283012E+000	0.0000000E+000	0.0000000E+000	0.0000000E+000	8.0283012E+000	7.0899568E+000	8.1971695E+001
7.9821213E+001	1.6749611E+002	2.6969334E+001	1.6965344E+002	-9.1469545E+000	09/05/2018 15:24:29.5212	-1.2547819E-001	2.6497757E-003	7.3931854E+001	1.8683003E+000	1.000000000000000E+000	11	2.1088600E-002	1.2430399E-004	5.8194152E-003	9.3701138E-004	5.8943690E-003	9.1469545E+000	1.8683009E+003	1.1603291E+004	1.1752740E+004	-8.0853043E+001	0.0000000E+000	0.0000000E+000	0.0000000E+000	8.0853043E+001	0.0000000E+000	0.0000000E+000	0.0000000E+000	-8.0853043E+001	0.0000000E+000	0.0000000E+000	0.0000000E+000	-9.1469545E+000	0.0000000E+000	0.0000000E+000	0.0000000E+000	9.1469545E+000	6.2106137E+000	8.0853043E+001
