EC-Lab ASCII FILE
Nb header lines : 66                          

Potentio Electrochemical Impedance Spectroscopy

Run on channel : 5 (SN 13220)
User : 
CE vs. WE compliance from -10 V to 10 V
Electrode connection : standard
Potential control : Ewe
Ewe ctrl range : min = -1.00 V, max = 1.00 V
Safety Limits :
	Do not start on E overload
Acquisition started on : 09/05/2018 15:23:39.000
Loaded Setting File : NONE
Saved on :
	File : RM_stacked second run DS_3+12_1_C05.mpr
	Directory : D:\Robert\Stacked cells\Second run 3% and 12% PVDF electrodes 12%compressed\
	Host : 10.5.5.6
Device : VMP3 (SN 0628)
Address : 10.5.5.5
EC-Lab for windows v11.17 (software)
Internet server v11.16 (firmware)
Command interpretor v11.16 (firmware)
Electrode material : 
Initial state : 
Electrolyte : 
Comments : 
Electrode surface area : 0.001 cm²
Characteristic mass : 0.001 g
Equivalent Weight : 0.000 g/eq.
Density : 0.000 g/cm3
Volume (V) : 0.000 m³
Text export
   Mode : Standard
   Time format : Elapsed
Cycle Definition : Charge/Discharge alternance
Mode                Single sine         
E (V)               0.0000              
vs.                 Eoc                 
tE (h:m:s)          0:00:3.0000         
record              1                   
dI                  0.000               
unit dI             mA                  
dt (s)              60.000              
fi                  200.000             
unit fi             kHz                 
ff                  10.000              
unit ff             mHz                 
Nd                  8                   
Points              per decade          
spacing             Logarithmic         
Va (mV)             20.0                
pw                  3.00                
Na                  5                   
corr                0                   
E range min (V)     -1.000              
E range max (V)     1.000               
I Range             Auto                
Bandwidth           5                   
nc cycles           0                   
goto Ns'            0                   
nr cycles           0                   
inc. cycle          0                   

freq/Hz	Re(Z)/Ohm	-Im(Z)/Ohm	|Z|/Ohm	Phase(Z)/deg	time/s	<Ewe>/V	<I>/mA	Cs/µF	Cp/µF	cycle number	I Range	|Ewe|/V	|I|/A	Re(Y)/Ohm-1	Im(Y)/Ohm-1	|Y|/Ohm-1	Phase(Y)/deg	Re(C)/nF	Im(C)/nF	|C|/nF	Phase(C)/deg	Re(M)	Im(M)	|M|	Phase(M)/deg	Re(Permittivity)	Im(Permittivity)	|Permittivity|	Phase(Permittivity)/deg	Re(Resistivity)/Ohm.cm	Im(Resistivity)/Ohm.cm	|Resistivity|/Ohm.cm	Phase(Resistivity)/deg	Re(Conductivity)/mS/cm	Im(Conductivity)/mS/cm	|Conductivity|/mS/cm	Phase(Conductivity)/deg	Tan(Delta)	Loss Angle(Delta)/deg	
2.0001948E+005	1.5383878E+002	-3.9958686E-001	1.5383929E+002	1.4882196E-001	09/05/2018 15:23:44.3331	2.9141954E-003	-1.4418990E-003	-1.9912997E+000	-1.3434591E-005	1.000000000000000E+000	11	1.7933264E-002	1.1657141E-004	6.5002679E-003	-1.6884051E-005	6.5002898E-003	-1.4882196E-001	-1.3434322E-002	5.1722450E+000	5.1722627E+000	-9.0148819E+001	0.0000000E+000	0.0000000E+000	0.0000000E+000	9.0148819E+001	0.0000000E+000	0.0000000E+000	0.0000000E+000	-9.0148819E+001	0.0000000E+000	0.0000000E+000	0.0000000E+000	1.4882196E-001	0.0000000E+000	0.0000000E+000	0.0000000E+000	-1.4882196E-001	3.8499460E+002	8.9851181E+001
1.4967770E+005	1.5327313E+002	7.9695731E-002	1.5327315E+002	-2.9791450E-002	09/05/2018 15:23:45.3981	3.4440237E-003	1.8720945E-003	1.3342216E+001	3.6071644E-006	1.000000000000000E+000	11	2.0470286E-002	1.3355429E-004	6.5242993E-003	3.3923677E-006	6.5243002E-003	2.9791450E-002	3.6073260E-003	6.9374022E+000	6.9374032E+000	-8.9970207E+001	0.0000000E+000	0.0000000E+000	0.0000000E+000	8.9970207E+001	0.0000000E+000	0.0000000E+000	0.0000000E+000	-8.9970207E+001	0.0000000E+000	0.0000000E+000	0.0000000E+000	-2.9791450E-002	0.0000000E+000	0.0000000E+000	0.0000000E+000	2.9791450E-002	1.9232289E+003	8.9970207E+001
1.1201170E+005	1.5299536E+002	5.1377785E-001	1.5299623E+002	-1.9240576E-001	09/05/2018 15:23:46.4621	3.4572480E-003	1.9664660E-003	2.7655492E+000	3.1186788E-005	1.000000000000000E+000	11	2.0755783E-002	1.3566205E-004	6.5360721E-003	2.1948958E-005	6.5361089E-003	1.9240576E-001	3.1186778E-002	9.2869596E+000	9.2870121E+000	-8.9807594E+001	0.0000000E+000	0.0000000E+000	0.0000000E+000	8.9807594E+001	0.0000000E+000	0.0000000E+000	0.0000000E+000	-8.9807594E+001	0.0000000E+000	0.0000000E+000	0.0000000E+000	-1.9240576E-001	0.0000000E+000	0.0000000E+000	0.0000000E+000	1.9240576E-001	2.9778503E+002	8.9807594E+001
8.3828102E+004	1.5300986E+002	8.8776952E-001	1.5301244E+002	-3.3242875E-001	09/05/2018 15:23:47.5271	3.4584214E-003	1.9550892E-003	2.1386034E+000	7.1990842E-005	1.000000000000000E+000	11	2.0700121E-002	1.3528392E-004	6.5353066E-003	3.7918118E-005	6.5354165E-003	3.3242875E-001	7.1990676E-002	1.2407847E+001	1.2408056E+001	-8.9667572E+001	0.0000000E+000	0.0000000E+000	0.0000000E+000	8.9667572E+001	0.0000000E+000	0.0000000E+000	0.0000000E+000	-8.9667572E+001	0.0000000E+000	0.0000000E+000	0.0000000E+000	-3.3242875E-001	0.0000000E+000	0.0000000E+000	0.0000000E+000	3.3242875E-001	1.7235313E+002	8.9667572E+001
6.2734359E+004	1.5310207E+002	1.1022780E+000	1.5310603E+002	-4.1250122E-001	09/05/2018 15:23:48.5921	3.4663188E-003	1.9862351E-003	2.3015666E+000	1.1929472E-004	1.000000000000000E+000	11	2.0596592E-002	1.3452502E-004	6.5312516E-003	4.7022590E-005	6.5314211E-003	4.1250122E-001	1.1929392E-001	1.6569565E+001	1.6569994E+001	-8.9587502E+001	0.0000000E+000	0.0000000E+000	0.0000000E+000	8.9587502E+001	0.0000000E+000	0.0000000E+000	0.0000000E+000	-8.9587502E+001	0.0000000E+000	0.0000000E+000	0.0000000E+000	-4.1250122E-001	0.0000000E+000	0.0000000E+000	0.0000000E+000	4.1250122E-001	1.3889606E+002	8.9587502E+001
4.6953109E+004	1.5327475E+002	1.3068098E+000	1.5328032E+002	-4.8848799E-001	09/05/2018 15:23:49.6571	3.4727259E-003	2.0382698E-003	2.5938411E+000	1.8853646E-004	1.000000000000000E+000	11	2.0477628E-002	1.3359594E-004	6.5237577E-003	5.5621102E-005	6.5239947E-003	4.8848799E-001	1.8853618E-001	2.2113302E+001	2.2114105E+001	-8.9511513E+001	0.0000000E+000	0.0000000E+000	0.0000000E+000	8.9511513E+001	0.0000000E+000	0.0000000E+000	0.0000000E+000	-8.9511513E+001	0.0000000E+000	0.0000000E+000	0.0000000E+000	-4.8848799E-001	0.0000000E+000	0.0000000E+000	0.0000000E+000	4.8848799E-001	1.1728926E+002	8.9511513E+001
3.5136707E+004	1.5347784E+002	1.5239749E+000	1.5348541E+002	-5.6890595E-001	09/05/2018 15:23:50.7221	3.4796174E-003	2.0061911E-003	2.9722221E+000	2.9302365E-004	1.000000000000000E+000	11	2.0438246E-002	1.3316084E-004	6.5149558E-003	6.4690961E-005	6.5152771E-003	5.6890595E-001	2.9302505E-001	2.9510090E+001	2.9511545E+001	-8.9431091E+001	0.0000000E+000	0.0000000E+000	0.0000000E+000	8.9431091E+001	0.0000000E+000	0.0000000E+000	0.0000000E+000	-8.9431091E+001	0.0000000E+000	0.0000000E+000	0.0000000E+000	-5.6890595E-001	0.0000000E+000	0.0000000E+000	0.0000000E+000	5.6890595E-001	1.0070891E+002	8.9431091E+001
2.6298820E+004	1.5369556E+002	1.6368192E+000	1.5370427E+002	-6.1016268E-001	09/05/2018 15:23:51.7871	3.4712919E-003	1.9696364E-003	3.6972868E+000	4.1928829E-004	1.000000000000000E+000	11	2.0268252E-002	1.3186525E-004	6.5056314E-003	6.9283349E-005	6.5060002E-003	6.1016268E-001	4.1928703E-001	3.9370716E+001	3.9372948E+001	-8.9389839E+001	0.0000000E+000	0.0000000E+000	0.0000000E+000	8.9389839E+001	0.0000000E+000	0.0000000E+000	0.0000000E+000	-8.9389839E+001	0.0000000E+000	0.0000000E+000	0.0000000E+000	-6.1016268E-001	0.0000000E+000	0.0000000E+000	0.0000000E+000	6.1016268E-001	9.3898918E+001	8.9389839E+001
1.9677732E+004	1.5397372E+002	1.8136007E+000	1.5398441E+002	-6.7483503E-001	09/05/2018 15:23:52.7261	3.4786491E-003	2.0280124E-003	4.4596772E+000	6.1863329E-004	1.000000000000000E+000	11	2.1858299E-002	1.4195139E-004	6.4937137E-003	7.6487100E-005	6.4941640E-003	6.7483503E-001	6.1863339E-001	5.2521629E+001	5.2525272E+001	-8.9325165E+001	0.0000000E+000	0.0000000E+000	0.0000000E+000	8.9325165E+001	0.0000000E+000	0.0000000E+000	0.0000000E+000	-8.9325165E+001	0.0000000E+000	0.0000000E+000	0.0000000E+000	-6.7483503E-001	0.0000000E+000	0.0000000E+000	0.0000000E+000	6.7483503E-001	8.4899467E+001	8.9325165E+001
1.4726557E+004	1.5424797E+002	2.0408425E+000	1.5426147E+002	-7.5803155E-001	09/05/2018 15:23:53.7911	3.4819643E-003	1.9953740E-003	5.2955294E+000	9.2685851E-004	1.000000000000000E+000	11	2.0226527E-002	1.3111846E-004	6.4819329E-003	8.5761923E-005	6.4825001E-003	7.5803155E-001	9.2686111E-001	7.0052460E+001	7.0058594E+001	-8.9241966E+001	0.0000000E+000	0.0000000E+000	0.0000000E+000	8.9241966E+001	0.0000000E+000	0.0000000E+000	0.0000000E+000	-8.9241966E+001	0.0000000E+000	0.0000000E+000	0.0000000E+000	-7.5803155E-001	0.0000000E+000	0.0000000E+000	0.0000000E+000	7.5803155E-001	7.5580536E+001	8.9241966E+001
1.1025388E+004	1.5454265E+002	2.3176372E+000	1.5456003E+002	-8.5918593E-001	09/05/2018 15:23:54.7301	3.4715899E-003	1.9386768E-003	6.2284617E+000	1.4004813E-003	1.000000000000000E+000	11	2.0814229E-002	1.3466760E-004	6.4692507E-003	9.7017721E-005	6.4699780E-003	8.5918593E-001	1.4004786E+000	9.3385674E+001	9.3396172E+001	-8.9140816E+001	0.0000000E+000	0.0000000E+000	0.0000000E+000	8.9140816E+001	0.0000000E+000	0.0000000E+000	0.0000000E+000	-8.9140816E+001	0.0000000E+000	0.0000000E+000	0.0000000E+000	-8.5918593E-001	0.0000000E+000	0.0000000E+000	0.0000000E+000	8.5918593E-001	6.6681122E+001	8.9140816E+001
8.3251924E+003	1.5489008E+002	2.6007073E+000	1.5491191E+002	-9.6194381E-001	09/05/2018 15:23:55.8216	3.4868442E-003	2.0722139E-003	7.3507957E+000	2.0717995E-003	1.000000000000000E+000	11	2.1157378E-002	1.3657684E-004	6.4543718E-003	1.0837319E-004	6.4552817E-003	9.6194381E-001	2.0718009E+000	1.2338995E+002	1.2340735E+002	-8.9038055E+001	0.0000000E+000	0.0000000E+000	0.0000000E+000	8.9038055E+001	0.0000000E+000	0.0000000E+000	0.0000000E+000	-8.9038055E+001	0.0000000E+000	0.0000000E+000	0.0000000E+000	-9.6194381E-001	0.0000000E+000	0.0000000E+000	0.0000000E+000	9.6194381E-001	5.9556904E+001	8.9038055E+001
6.1954932E+003	1.5529941E+002	2.9591000E+000	1.5532759E+002	-1.0915910E+000	09/05/2018 15:23:57.2368	3.4858198E-003	1.9936955E-003	8.6812973E+000	3.1506973E-003	1.000000000000000E+000	11	2.1369316E-002	1.3757579E-004	6.4368378E-003	1.2264855E-004	6.4380062E-003	1.0915910E+000	3.1506968E+000	1.6535480E+002	1.6538481E+002	-8.8908409E+001	0.0000000E+000	0.0000000E+000	0.0000000E+000	8.8908409E+001	0.0000000E+000	0.0000000E+000	0.0000000E+000	-8.8908409E+001	0.0000000E+000	0.0000000E+000	0.0000000E+000	-1.0915910E+000	0.0000000E+000	0.0000000E+000	0.0000000E+000	1.0915910E+000	5.2481972E+001	8.8908409E+001
4.6214780E+003	1.5578558E+002	3.3852763E+000	1.5582236E+002	-1.2448618E+000	09/05/2018 15:23:58.9247	3.4900294E-003	1.9761643E-003	1.0172908E+001	4.8014657E-003	1.000000000000000E+000	11	2.1486411E-002	1.3789043E-004	6.4160493E-003	1.3942305E-004	6.4175641E-003	1.2448618E+000	4.8014793E+000	2.2095659E+002	2.2100876E+002	-8.8755135E+001	0.0000000E+000	0.0000000E+000	0.0000000E+000	8.8755135E+001	0.0000000E+000	0.0000000E+000	0.0000000E+000	-8.8755135E+001	0.0000000E+000	0.0000000E+000	0.0000000E+000	-1.2448618E+000	0.0000000E+000	0.0000000E+000	0.0000000E+000	1.2448618E+000	4.6018574E+001	8.8755135E+001
3.4561052E+003	1.5630867E+002	3.8854949E+000	1.5635695E+002	-1.4239558E+000	09/05/2018 15:24:00.6117	3.4820016E-003	1.9547164E-003	1.1851869E+001	7.3188888E-003	1.000000000000000E+000	11	2.1548197E-002	1.3781413E-004	6.3936473E-003	1.5893222E-004	6.3956222E-003	1.4239558E+000	7.3188992E+000	2.9442987E+002	2.9452081E+002	-8.8576042E+001	0.0000000E+000	0.0000000E+000	0.0000000E+000	8.8576042E+001	0.0000000E+000	0.0000000E+000	0.0000000E+000	-8.8576042E+001	0.0000000E+000	0.0000000E+000	0.0000000E+000	-1.4239558E+000	0.0000000E+000	0.0000000E+000	0.0000000E+000	1.4239558E+000	4.0228767E+001	8.8576042E+001
2.5858269E+003	1.5690065E+002	4.4988794E+000	1.5696513E+002	-1.6424165E+000	09/05/2018 15:24:02.2987	3.4867697E-003	1.9862356E-003	1.3680953E+001	1.1238767E-002	1.000000000000000E+000	11	2.1584924E-002	1.3751413E-004	6.3682240E-003	1.8259883E-004	6.3708415E-003	1.6424165E+000	1.1238776E+001	3.9195752E+002	3.9211862E+002	-8.8357582E+001	0.0000000E+000	0.0000000E+000	0.0000000E+000	8.8357582E+001	0.0000000E+000	0.0000000E+000	0.0000000E+000	-8.8357582E+001	0.0000000E+000	0.0000000E+000	0.0000000E+000	-1.6424165E+000	0.0000000E+000	0.0000000E+000	0.0000000E+000	1.6424165E+000	3.4875496E+001	8.8357582E+001
1.9356189E+003	1.5758844E+002	5.1241074E+000	1.5767172E+002	-1.8623595E+000	09/05/2018 15:24:03.9867	3.4795804E-003	1.9569544E-003	1.6046564E+001	1.6947703E-002	1.000000000000000E+000	11	2.1602463E-002	1.3700912E-004	6.3389414E-003	2.0611548E-004	6.3422914E-003	1.8623595E+000	1.6947693E+001	5.2121515E+002	5.2149060E+002	-8.8137642E+001	0.0000000E+000	0.0000000E+000	0.0000000E+000	8.8137642E+001	0.0000000E+000	0.0000000E+000	0.0000000E+000	-8.8137642E+001	0.0000000E+000	0.0000000E+000	0.0000000E+000	-1.8623595E+000	0.0000000E+000	0.0000000E+000	0.0000000E+000	1.8623595E+000	3.0754320E+001	8.8137642E+001
1.4486094E+003	1.5839339E+002	5.8861680E+000	1.5850272E+002	-2.1282296E+000	09/05/2018 15:24:05.6749	3.4783697E-003	1.9381172E-003	1.8665354E+001	2.5741158E-002	1.000000000000000E+000	11	2.1613108E-002	1.3635796E-004	6.3046883E-003	2.3429298E-004	6.3090404E-003	2.1282296E+000	2.5741131E+001	6.9267969E+002	6.9315784E+002	-8.7871773E+001	0.0000000E+000	0.0000000E+000	0.0000000E+000	8.7871773E+001	0.0000000E+000	0.0000000E+000	0.0000000E+000	-8.7871773E+001	0.0000000E+000	0.0000000E+000	0.0000000E+000	-2.1282296E+000	0.0000000E+000	0.0000000E+000	0.0000000E+000	2.1282296E+000	2.6909424E+001	8.7871773E+001
1.0839595E+003	1.5929942E+002	6.8005023E+000	1.5944452E+002	-2.4444761E+000	09/05/2018 15:24:07.3640	3.4851308E-003	1.9623628E-003	2.1590668E+001	3.9276149E-002	1.000000000000000E+000	11	2.1619221E-002	1.3559088E-004	6.2660668E-003	2.6749878E-004	6.2717739E-003	2.4444761E+000	3.9276100E+001	9.2003021E+002	9.2086816E+002	-8.7555527E+001	0.0000000E+000	0.0000000E+000	0.0000000E+000	8.7555527E+001	0.0000000E+000	0.0000000E+000	0.0000000E+000	-8.7555527E+001	0.0000000E+000	0.0000000E+000	0.0000000E+000	-2.4444761E+000	0.0000000E+000	0.0000000E+000	0.0000000E+000	2.4444761E+000	2.3424656E+001	8.7555527E+001
8.1129767E+002	1.6031662E+002	7.8310857E+000	1.6050777E+002	-2.7965398E+000	09/05/2018 15:24:09.0494	3.4801203E-003	1.9631088E-003	2.5050587E+001	5.9630681E-002	1.000000000000000E+000	11	2.1620607E-002	1.3470132E-004	6.2228083E-003	3.0396940E-004	6.2302281E-003	2.7965398E+000	5.9630672E+001	1.2207489E+003	1.2222045E+003	-8.7203461E+001	0.0000000E+000	0.0000000E+000	0.0000000E+000	8.7203461E+001	0.0000000E+000	0.0000000E+000	0.0000000E+000	-8.7203461E+001	0.0000000E+000	0.0000000E+000	0.0000000E+000	-2.7965398E+000	0.0000000E+000	0.0000000E+000	0.0000000E+000	2.7965398E+000	2.0471825E+001	8.7203461E+001
6.0752716E+002	1.6149574E+002	9.0481262E+000	1.6174901E+002	-3.2067597E+000	09/05/2018 15:24:10.7289	3.4835103E-003	1.9450178E-003	2.8953148E+001	9.0600342E-002	1.000000000000000E+000	11	2.1620480E-002	1.3366685E-004	6.1727376E-003	3.4584015E-004	6.1824182E-003	3.2067597E+000	9.0600250E+001	1.6170828E+003	1.6196188E+003	-8.6793243E+001	0.0000000E+000	0.0000000E+000	0.0000000E+000	8.6793243E+001	0.0000000E+000	0.0000000E+000	0.0000000E+000	-8.6793243E+001	0.0000000E+000	0.0000000E+000	0.0000000E+000	-3.2067597E+000	0.0000000E+000	0.0000000E+000	0.0000000E+000	3.2067597E+000	1.7848530E+001	8.6793243E+001
4.5456351E+002	1.6288106E+002	1.0498060E+001	1.6321902E+002	-3.6877441E+000	09/05/2018 15:24:12.4179	3.4760600E-003	1.8909316E-003	3.3351589E+001	1.3797267E-001	1.000000000000000E+000	11	2.1622479E-002	1.3247524E-004	6.1140507E-003	3.9406464E-004	6.1267368E-003	3.6877441E+000	1.3797266E+002	2.1406941E+003	2.1451357E+003	-8.6312256E+001	0.0000000E+000	0.0000000E+000	0.0000000E+000	8.6312256E+001	0.0000000E+000	0.0000000E+000	0.0000000E+000	-8.6312256E+001	0.0000000E+000	0.0000000E+000	0.0000000E+000	-3.6877441E+000	0.0000000E+000	0.0000000E+000	0.0000000E+000	3.6877441E+000	1.5515348E+001	8.6312256E+001
3.4010876E+002	1.6443538E+002	1.2203187E+001	1.6488757E+002	-4.2442918E+000	09/05/2018 15:24:14.1057	3.4847211E-003	1.9217050E-003	3.8346794E+001	2.1003890E-001	1.000000000000000E+000	11	2.1622747E-002	1.3113630E-004	6.0481066E-003	4.4884605E-004	6.0647386E-003	4.2442918E+000	2.1003897E+002	2.8302302E+003	2.8380132E+003	-8.5755707E+001	0.0000000E+000	0.0000000E+000	0.0000000E+000	8.5755707E+001	0.0000000E+000	0.0000000E+000	0.0000000E+000	-8.5755707E+001	0.0000000E+000	0.0000000E+000	0.0000000E+000	-4.2442918E+000	0.0000000E+000	0.0000000E+000	0.0000000E+000	4.2442918E+000	1.3474790E+001	8.5755707E+001
2.5443001E+002	1.6622783E+002	1.4173581E+001	1.6683099E+002	-4.8735933E+000	09/05/2018 15:24:15.7962	3.4782207E-003	1.9336411E-003	4.4133892E+001	3.1855023E-001	1.000000000000000E+000	11	2.1621589E-002	1.2960174E-004	5.9724185E-003	5.0924416E-004	5.9940899E-003	4.8735933E+000	3.1855038E+002	3.7359585E+003	3.7495146E+003	-8.5126404E+001	0.0000000E+000	0.0000000E+000	0.0000000E+000	8.5126404E+001	0.0000000E+000	0.0000000E+000	0.0000000E+000	-8.5126404E+001	0.0000000E+000	0.0000000E+000	0.0000000E+000	-4.8735933E+000	0.0000000E+000	0.0000000E+000	0.0000000E+000	4.8735933E+000	1.1728004E+001	8.5126404E+001
1.9054874E+002	1.6828140E+002	1.6538622E+001	1.6909215E+002	-5.6129785E+000	09/05/2018 15:24:17.4782	3.4801017E-003	1.9218911E-003	5.0502712E+001	4.8313275E-001	1.000000000000000E+000	11	2.1616571E-002	1.2783900E-004	5.8855796E-003	5.7843211E-004	5.9139351E-003	5.6129785E+000	4.8313257E+002	4.9159028E+003	4.9395869E+003	-8.4387024E+001	0.0000000E+000	0.0000000E+000	0.0000000E+000	8.4387024E+001	0.0000000E+000	0.0000000E+000	0.0000000E+000	-8.4387024E+001	0.0000000E+000	0.0000000E+000	0.0000000E+000	-5.6129785E+000	0.0000000E+000	0.0000000E+000	0.0000000E+000	5.6129785E+000	1.0175056E+001	8.4387024E+001
1.4249214E+002	1.7069279E+002	1.9292479E+001	1.7177960E+002	-6.4484644E+000	09/05/2018 15:24:19.1923	3.4810889E-003	1.9291649E-003	5.7895016E+001	7.3025423E-001	1.000000000000000E+000	11	2.1618307E-002	1.2584910E-004	5.7845823E-003	6.5379986E-004	5.8214129E-003	6.4484644E+000	7.3025409E+002	6.4610225E+003	6.5021597E+003	-8.3551537E+001	0.0000000E+000	0.0000000E+000	0.0000000E+000	8.3551537E+001	0.0000000E+000	0.0000000E+000	0.0000000E+000	-8.3551537E+001	0.0000000E+000	0.0000000E+000	0.0000000E+000	-6.4484644E+000	0.0000000E+000	0.0000000E+000	0.0000000E+000	6.4484644E+000	8.8476343E+000	8.3551537E+001
1.0667264E+002	1.7349861E+002	2.2563808E+001	1.7495969E+002	-7.4098315E+000	09/05/2018 15:24:20.8536	3.4782579E-003	1.9054788E-003	6.6123322E+001	1.0997741E+000	1.000000000000000E+000	11	2.1617157E-002	1.2355507E-004	5.6678718E-003	7.3711702E-004	5.7156025E-003	7.4098315E+000	1.0997738E+003	8.4564316E+003	8.5276455E+003	-8.2590172E+001	0.0000000E+000	0.0000000E+000	0.0000000E+000	8.2590172E+001	0.0000000E+000	0.0000000E+000	0.0000000E+000	-8.2590172E+001	0.0000000E+000	0.0000000E+000	0.0000000E+000	-7.4098315E+000	0.0000000E+000	0.0000000E+000	0.0000000E+000	7.4098315E+000	7.6892433E+000	8.2590172E+001
7.9821213E+001	1.7679922E+002	2.6436865E+001	1.7876486E+002	-8.5044508E+000	09/05/2018 15:24:22.5442	3.4837711E-003	1.9148041E-003	7.5420929E+001	1.6494815E+000	1.000000000000000E+000	11	2.1615956E-002	1.2091837E-004	5.5324319E-003	8.2726683E-004	5.5939406E-003	8.5044508E+000	1.6494810E+003	1.1031077E+004	1.1153719E+004	-8.1495552E+001	0.0000000E+000	0.0000000E+000	0.0000000E+000	8.1495552E+001	0.0000000E+000	0.0000000E+000	0.0000000E+000	-8.1495552E+001	0.0000000E+000	0.0000000E+000	0.0000000E+000	-8.5044508E+000	0.0000000E+000	0.0000000E+000	0.0000000E+000	8.5044508E+000	6.6876016E+000	8.1495552E+001
