EC-Lab ASCII FILE
Nb header lines : 66                          

Potentio Electrochemical Impedance Spectroscopy

Run on channel : 8 (SN 13213)
User : 
CE vs. WE compliance from -10 V to 10 V
Electrode connection : standard
Potential control : Ewe
Ewe ctrl range : min = -1.00 V, max = 1.00 V
Safety Limits :
	Do not start on E overload
Acquisition started on : 09/05/2018 15:24:09.000
Loaded Setting File : NONE
Saved on :
	File : RM_stacked second run DS_12+3_2_C08.mpr
	Directory : D:\Robert\Stacked cells\Second run 3% and 12% PVDF electrodes 12%compressed\
	Host : 10.5.5.6
Device : VMP3 (SN 0628)
Address : 10.5.5.5
EC-Lab for windows v11.17 (software)
Internet server v11.16 (firmware)
Command interpretor v11.16 (firmware)
Electrode material : 
Initial state : 
Electrolyte : 
Comments : 
Electrode surface area : 0.001 cm²
Characteristic mass : 0.001 g
Equivalent Weight : 0.000 g/eq.
Density : 0.000 g/cm3
Volume (V) : 0.000 m³
Text export
   Mode : Standard
   Time format : Elapsed
Cycle Definition : Charge/Discharge alternance
Mode                Single sine         
E (V)               0.0000              
vs.                 Eoc                 
tE (h:m:s)          0:00:3.0000         
record              1                   
dI                  0.000               
unit dI             mA                  
dt (s)              60.000              
fi                  200.000             
unit fi             kHz                 
ff                  8.000               
unit ff             mHz                 
Nd                  8                   
Points              per decade          
spacing             Logarithmic         
Va (mV)             20.0                
pw                  3.00                
Na                  5                   
corr                0                   
E range min (V)     -1.000              
E range max (V)     1.000               
I Range             Auto                
Bandwidth           5                   
nc cycles           0                   
goto Ns'            0                   
nr cycles           0                   
inc. cycle          0                   

freq/Hz	Re(Z)/Ohm	-Im(Z)/Ohm	|Z|/Ohm	Phase(Z)/deg	time/s	<Ewe>/V	<I>/mA	Cs/µF	Cp/µF	cycle number	I Range	|Ewe|/V	|I|/A	Re(Y)/Ohm-1	Im(Y)/Ohm-1	|Y|/Ohm-1	Phase(Y)/deg	Re(C)/nF	Im(C)/nF	|C|/nF	Phase(C)/deg	Re(M)	Im(M)	|M|	Phase(M)/deg	Re(Permittivity)	Im(Permittivity)	|Permittivity|	Phase(Permittivity)/deg	Re(Resistivity)/Ohm.cm	Im(Resistivity)/Ohm.cm	|Resistivity|/Ohm.cm	Phase(Resistivity)/deg	Re(Conductivity)/mS/cm	Im(Conductivity)/mS/cm	|Conductivity|/mS/cm	Phase(Conductivity)/deg	Tan(Delta)	Loss Angle(Delta)/deg	
2.0001948E+005	1.6861223E+002	2.8979325E+000	1.6863713E+002	-9.8464358E-001	09/05/2018 15:24:14.3321	-9.2533594E-003	3.6996631E-003	2.7457410E-001	8.1082973E-005	1.000000000000000E+000	11	1.8258408E-002	1.0827039E-004	5.9290165E-003	1.0190179E-004	5.9298920E-003	9.8464358E-001	8.1082843E-002	4.7177019E+000	4.7183986E+000	-8.9015358E+001	0.0000000E+000	0.0000000E+000	0.0000000E+000	8.9015358E+001	0.0000000E+000	0.0000000E+000	0.0000000E+000	-8.9015358E+001	0.0000000E+000	0.0000000E+000	0.0000000E+000	-9.8464358E-001	0.0000000E+000	0.0000000E+000	0.0000000E+000	9.8464358E-001	5.8183628E+001	8.9015358E+001
1.4984372E+005	1.6819650E+002	2.9530632E+000	1.6822243E+002	-1.0058514E+000	09/05/2018 15:24:15.3961	-9.3960194E-003	2.9333292E-003	3.5967383E-001	1.1083746E-004	1.000000000000000E+000	11	2.0531317E-002	1.2204864E-004	5.9435945E-003	1.0435301E-004	5.9445105E-003	1.0058514E+000	1.1083750E-001	6.3129268E+000	6.3138995E+000	-8.8994148E+001	0.0000000E+000	0.0000000E+000	0.0000000E+000	8.8994148E+001	0.0000000E+000	0.0000000E+000	0.0000000E+000	-8.8994148E+001	0.0000000E+000	0.0000000E+000	0.0000000E+000	-1.0058514E+000	0.0000000E+000	0.0000000E+000	0.0000000E+000	1.0058514E+000	5.6956619E+001	8.8994148E+001
1.1226560E+005	1.6806500E+002	3.1869023E+000	1.6809521E+002	-1.0863307E+000	09/05/2018 15:24:16.4601	-9.3640704E-003	3.0017586E-003	4.4484088E-001	1.5989375E-004	1.000000000000000E+000	11	2.0764198E-002	1.2352641E-004	5.9479401E-003	1.1278674E-004	5.9490092E-003	1.0863307E+000	1.5989427E-001	8.4321833E+000	8.4336987E+000	-8.8913666E+001	0.0000000E+000	0.0000000E+000	0.0000000E+000	8.8913666E+001	0.0000000E+000	0.0000000E+000	0.0000000E+000	-8.8913666E+001	0.0000000E+000	0.0000000E+000	0.0000000E+000	-1.0863307E+000	0.0000000E+000	0.0000000E+000	0.0000000E+000	1.0863307E+000	5.2736164E+001	8.8913666E+001
8.4111305E+004	1.6827567E+002	3.4324732E+000	1.6831067E+002	-1.1685525E+000	09/05/2018 15:24:17.5241	-9.3421554E-003	2.9364990E-003	5.5126268E-001	2.2927125E-004	1.000000000000000E+000	11	2.0692758E-002	1.2294383E-004	5.9401579E-003	1.2116686E-004	5.9413938E-003	1.1685525E+000	2.2927199E-001	1.1239935E+001	1.1242273E+001	-8.8831444E+001	0.0000000E+000	0.0000000E+000	0.0000000E+000	8.8831444E+001	0.0000000E+000	0.0000000E+000	0.0000000E+000	-8.8831444E+001	0.0000000E+000	0.0000000E+000	0.0000000E+000	-1.1685525E+000	0.0000000E+000	0.0000000E+000	0.0000000E+000	1.1685525E+000	4.9024612E+001	8.8831444E+001
6.3017563E+004	1.6870601E+002	3.9002371E+000	1.6875108E+002	-1.3243591E+000	09/05/2018 15:24:18.5891	-9.3589043E-003	2.9221419E-003	6.4754134E-001	3.4590464E-004	1.000000000000000E+000	11	2.0579312E-002	1.2195070E-004	5.9243049E-003	1.3696130E-004	5.9258877E-003	1.3243591E+000	3.4590390E-001	1.4962217E+001	1.4966215E+001	-8.8675644E+001	0.0000000E+000	0.0000000E+000	0.0000000E+000	8.8675644E+001	0.0000000E+000	0.0000000E+000	0.0000000E+000	-8.8675644E+001	0.0000000E+000	0.0000000E+000	0.0000000E+000	-1.3243591E+000	0.0000000E+000	0.0000000E+000	0.0000000E+000	1.3243591E+000	4.3255322E+001	8.8675644E+001
4.7216781E+004	1.6930161E+002	4.3278666E+000	1.6935692E+002	-1.4643363E+000	09/05/2018 15:24:19.6541	-9.3466695E-003	2.9087171E-003	7.7884293E-001	5.0861802E-004	1.000000000000000E+000	11	2.0495607E-002	1.2102019E-004	5.9027611E-003	1.5089261E-004	5.9046894E-003	1.4643363E+000	5.0861669E-001	1.9896603E+001	1.9903103E+001	-8.8535667E+001	0.0000000E+000	0.0000000E+000	0.0000000E+000	8.8535667E+001	0.0000000E+000	0.0000000E+000	0.0000000E+000	-8.8535667E+001	0.0000000E+000	0.0000000E+000	0.0000000E+000	-1.4643363E+000	0.0000000E+000	0.0000000E+000	0.0000000E+000	1.4643363E+000	3.9118954E+001	8.8535667E+001
3.5371086E+004	1.7014639E+002	4.8455124E+000	1.7021538E+002	-1.6312565E+000	09/05/2018 15:24:20.7181	-9.3407379E-003	2.9818080E-003	9.2860717E-001	7.5251271E-004	1.000000000000000E+000	11	2.0405134E-002	1.1987833E-004	5.8725290E-003	1.6724077E-004	5.8749099E-003	1.6312565E+000	7.5251257E-001	2.6423897E+001	2.6434610E+001	-8.8368744E+001	0.0000000E+000	0.0000000E+000	0.0000000E+000	8.8368744E+001	0.0000000E+000	0.0000000E+000	0.0000000E+000	-8.8368744E+001	0.0000000E+000	0.0000000E+000	0.0000000E+000	-1.6312565E+000	0.0000000E+000	0.0000000E+000	0.0000000E+000	1.6312565E+000	3.5114220E+001	8.8368744E+001
2.6503898E+004	1.7120486E+002	5.1769691E+000	1.7128311E+002	-1.7320077E+000	09/05/2018 15:24:21.7831	-9.3358709E-003	2.9357532E-003	1.1599381E+000	1.0596364E-003	1.000000000000000E+000	11	2.0225413E-002	1.1808177E-004	5.8356198E-003	1.7646009E-004	5.8382871E-003	1.7320077E+000	1.0596377E+000	3.5042683E+001	3.5058701E+001	-8.8267990E+001	0.0000000E+000	0.0000000E+000	0.0000000E+000	8.8267990E+001	0.0000000E+000	0.0000000E+000	0.0000000E+000	-8.8267990E+001	0.0000000E+000	0.0000000E+000	0.0000000E+000	-1.7320077E+000	0.0000000E+000	0.0000000E+000	0.0000000E+000	1.7320077E+000	3.3070484E+001	8.8267990E+001
1.9853508E+004	1.7232536E+002	5.3953462E+000	1.7240981E+002	-1.7932916E+000	09/05/2018 15:24:22.7211	-9.3479184E-003	2.9227010E-003	1.4858110E+000	1.4550512E-003	1.000000000000000E+000	11	2.1760687E-002	1.2621490E-004	5.7972935E-003	1.8150784E-004	5.8001340E-003	1.7932916E+000	1.4550493E+000	4.6473797E+001	4.6496571E+001	-8.8206711E+001	0.0000000E+000	0.0000000E+000	0.0000000E+000	8.8206711E+001	0.0000000E+000	0.0000000E+000	0.0000000E+000	-8.8206711E+001	0.0000000E+000	0.0000000E+000	0.0000000E+000	-1.7932916E+000	0.0000000E+000	0.0000000E+000	0.0000000E+000	1.7932916E+000	3.1939631E+001	8.8206711E+001
1.4873044E+004	1.7347867E+002	5.4033232E+000	1.7356279E+002	-1.7840093E+000	09/05/2018 15:24:23.7851	-9.3478812E-003	2.9167349E-003	1.9804292E+000	1.9194109E-003	1.000000000000000E+000	11	2.0283679E-002	1.1686651E-004	5.7588113E-003	1.7936913E-004	5.7616038E-003	1.7840093E+000	1.9194136E+000	6.1624454E+001	6.1654339E+001	-8.8215988E+001	0.0000000E+000	0.0000000E+000	0.0000000E+000	8.8215988E+001	0.0000000E+000	0.0000000E+000	0.0000000E+000	-8.8215988E+001	0.0000000E+000	0.0000000E+000	0.0000000E+000	-1.7840093E+000	0.0000000E+000	0.0000000E+000	0.0000000E+000	1.7840093E+000	3.2105923E+001	8.8215988E+001
1.1142573E+004	1.7459134E+002	5.2921057E+000	1.7467152E+002	-1.7361829E+000	09/05/2018 15:24:24.7241	-9.3408693E-003	2.9722985E-003	2.6990201E+000	2.4775299E-003	1.000000000000000E+000	11	2.0843478E-002	1.1932957E-004	5.7224035E-003	1.7345398E-004	5.7250317E-003	1.7361829E+000	2.4775302E+000	8.1735954E+001	8.1773491E+001	-8.8263817E+001	0.0000000E+000	0.0000000E+000	0.0000000E+000	8.8263817E+001	0.0000000E+000	0.0000000E+000	0.0000000E+000	-8.8263817E+001	0.0000000E+000	0.0000000E+000	0.0000000E+000	-1.7361829E+000	0.0000000E+000	0.0000000E+000	0.0000000E+000	1.7361829E+000	3.2990902E+001	8.8263817E+001
8.4128252E+003	1.7548946E+002	5.1220775E+000	1.7556419E+002	-1.6718390E+000	09/05/2018 15:24:25.8043	-9.3307598E-003	2.9883338E-003	3.6934493E+000	3.1437827E-003	1.000000000000000E+000	11	2.1165045E-002	1.2055445E-004	5.6934976E-003	1.6617827E-004	5.6959223E-003	1.6718390E+000	3.1437788E+000	1.0771035E+002	1.0775622E+002	-8.8328163E+001	0.0000000E+000	0.0000000E+000	0.0000000E+000	8.8328163E+001	0.0000000E+000	0.0000000E+000	0.0000000E+000	-8.8328163E+001	0.0000000E+000	0.0000000E+000	0.0000000E+000	-1.6718390E+000	0.0000000E+000	0.0000000E+000	0.0000000E+000	1.6718390E+000	3.4261383E+001	8.8328163E+001
6.2954487E+003	1.7618300E+002	5.1830010E+000	1.7625922E+002	-1.6850574E+000	09/05/2018 15:24:27.2025	-9.3366541E-003	2.7837916E-003	4.8776665E+000	4.2176549E-003	1.000000000000000E+000	11	2.1351300E-002	1.2113580E-004	5.6710085E-003	1.6683133E-004	5.6734621E-003	1.6850574E+000	4.2176580E+000	1.4336850E+002	1.4343053E+002	-8.8314941E+001	0.0000000E+000	0.0000000E+000	0.0000000E+000	8.8314941E+001	0.0000000E+000	0.0000000E+000	0.0000000E+000	-8.8314941E+001	0.0000000E+000	0.0000000E+000	0.0000000E+000	-1.6850574E+000	0.0000000E+000	0.0000000E+000	0.0000000E+000	1.6850574E+000	3.3992470E+001	8.8314941E+001
4.6855010E+003	1.7709111E+002	5.0494437E+000	1.7716309E+002	-1.6332465E+000	09/05/2018 15:24:28.8920	-9.3380716E-003	2.8138112E-003	6.7269869E+000	5.4646349E-003	1.000000000000000E+000	11	2.1467058E-002	1.2117116E-004	5.6422236E-003	1.6087815E-004	5.6445166E-003	1.6332465E+000	5.4646378E+000	1.9165245E+002	1.9173035E+002	-8.8366753E+001	0.0000000E+000	0.0000000E+000	0.0000000E+000	8.8366753E+001	0.0000000E+000	0.0000000E+000	0.0000000E+000	-8.8366753E+001	0.0000000E+000	0.0000000E+000	0.0000000E+000	-1.6332465E+000	0.0000000E+000	0.0000000E+000	0.0000000E+000	1.6332465E+000	3.5071411E+001	8.8366753E+001
3.5111226E+003	1.7787871E+002	5.1486583E+000	1.7795320E+002	-1.6579503E+000	09/05/2018 15:24:30.5797	-9.3340985E-003	2.8130654E-003	8.8040009E+000	7.3698154E-003	1.000000000000000E+000	11	2.1528373E-002	1.2097772E-004	5.6171026E-003	1.6258574E-004	5.6194551E-003	1.6579503E+000	7.3698201E+000	2.5461647E+002	2.5472311E+002	-8.8342049E+001	0.0000000E+000	0.0000000E+000	0.0000000E+000	8.8342049E+001	0.0000000E+000	0.0000000E+000	0.0000000E+000	-8.8342049E+001	0.0000000E+000	0.0000000E+000	0.0000000E+000	-1.6579503E+000	0.0000000E+000	0.0000000E+000	0.0000000E+000	1.6579503E+000	3.4548557E+001	8.8342049E+001
2.6308411E+003	1.7861221E+002	5.3673935E+000	1.7869284E+002	-1.7212511E+000	09/05/2018 15:24:32.2677	-9.3324576E-003	2.8113872E-003	1.1270990E+001	1.0168916E-002	1.000000000000000E+000	11	2.1561105E-002	1.2066015E-004	5.5936696E-003	1.6809280E-004	5.5961949E-003	1.7212511E+000	1.0168923E+001	3.3839377E+002	3.3854654E+002	-8.8278748E+001	0.0000000E+000	0.0000000E+000	0.0000000E+000	8.8278748E+001	0.0000000E+000	0.0000000E+000	0.0000000E+000	-8.8278748E+001	0.0000000E+000	0.0000000E+000	0.0000000E+000	-1.7212511E+000	0.0000000E+000	0.0000000E+000	0.0000000E+000	1.7212511E+000	3.3277271E+001	8.8278748E+001
1.9706301E+003	1.7944814E+002	5.7659650E+000	1.7954074E+002	-1.8403748E+000	09/05/2018 15:24:33.9557	-9.3364296E-003	2.7951654E-003	1.4006932E+001	1.4446446E-002	1.000000000000000E+000	11	2.1579452E-002	1.2019251E-004	5.5668931E-003	1.7887348E-004	5.5697663E-003	1.8403748E+000	1.4446466E+001	4.4960165E+002	4.4983368E+002	-8.8159622E+001	0.0000000E+000	0.0000000E+000	0.0000000E+000	8.8159622E+001	0.0000000E+000	0.0000000E+000	0.0000000E+000	-8.8159622E+001	0.0000000E+000	0.0000000E+000	0.0000000E+000	-1.8403748E+000	0.0000000E+000	0.0000000E+000	0.0000000E+000	1.8403748E+000	3.1121962E+001	8.8159622E+001
1.4773634E+003	1.8028574E+002	6.2347488E+000	1.8039351E+002	-1.9806474E+000	09/05/2018 15:24:35.6404	-9.3298461E-003	2.8074717E-003	1.7278811E+001	2.0640012E-002	1.000000000000000E+000	11	2.1590397E-002	1.1968500E-004	5.5401251E-003	1.9159190E-004	5.5434369E-003	1.9806474E+000	2.0639977E+001	5.9683228E+002	5.9718909E+002	-8.8019356E+001	0.0000000E+000	0.0000000E+000	0.0000000E+000	8.8019356E+001	0.0000000E+000	0.0000000E+000	0.0000000E+000	-8.8019356E+001	0.0000000E+000	0.0000000E+000	0.0000000E+000	-1.9806474E+000	0.0000000E+000	0.0000000E+000	0.0000000E+000	1.9806474E+000	2.8916279E+001	8.8019356E+001
1.1067709E+003	1.8119191E+002	6.8866711E+000	1.8132274E+002	-2.1766279E+000	09/05/2018 15:24:37.3264	-9.3321586E-003	2.8080312E-003	2.0881084E+001	3.0120850E-002	1.000000000000000E+000	11	2.1594318E-002	1.1909327E-004	5.5110492E-003	2.0946180E-004	5.5150283E-003	2.1766279E+000	3.0120855E+001	7.9249530E+002	7.9306750E+002	-8.7823372E+001	0.0000000E+000	0.0000000E+000	0.0000000E+000	8.7823372E+001	0.0000000E+000	0.0000000E+000	0.0000000E+000	-8.7823372E+001	0.0000000E+000	0.0000000E+000	0.0000000E+000	-2.1766279E+000	0.0000000E+000	0.0000000E+000	0.0000000E+000	2.1766279E+000	2.6310522E+001	8.7823372E+001
8.2920349E+002	1.8221449E+002	7.6926804E+000	1.8237680E+002	-2.4174616E+000	09/05/2018 15:24:39.0149	-9.3393391E-003	2.7748419E-003	2.4950619E+001	4.4391267E-002	1.000000000000000E+000	11	2.1596305E-002	1.1841586E-004	5.4782741E-003	2.3128024E-004	5.4831537E-003	2.4174616E+000	4.4391331E+001	1.0514841E+003	1.0524208E+003	-8.7582535E+001	0.0000000E+000	0.0000000E+000	0.0000000E+000	8.7582535E+001	0.0000000E+000	0.0000000E+000	0.0000000E+000	-8.7582535E+001	0.0000000E+000	0.0000000E+000	0.0000000E+000	-2.4174616E+000	0.0000000E+000	0.0000000E+000	0.0000000E+000	2.4174616E+000	2.3686737E+001	8.7582535E+001
6.2099347E+002	1.8339668E+002	8.6596680E+000	1.8360101E+002	-2.7033978E+000	09/05/2018 15:24:40.6994	-9.3351807E-003	2.8110142E-003	2.9595919E+001	6.5839142E-002	1.000000000000000E+000	11	2.1595662E-002	1.1762278E-004	5.4405313E-003	2.5689229E-004	5.4465928E-003	2.7033978E+000	6.5839188E+001	1.3943583E+003	1.3959119E+003	-8.7296600E+001	0.0000000E+000	0.0000000E+000	0.0000000E+000	8.7296600E+001	0.0000000E+000	0.0000000E+000	0.0000000E+000	-8.7296600E+001	0.0000000E+000	0.0000000E+000	0.0000000E+000	-2.7033978E+000	0.0000000E+000	0.0000000E+000	0.0000000E+000	2.7033978E+000	2.1178259E+001	8.7296600E+001
4.6514874E+002	1.8469846E+002	9.8206310E+000	1.8495937E+002	-3.0436168E+000	09/05/2018 15:24:42.3857	-9.3359267E-003	2.7584338E-003	3.4840862E+001	9.8223411E-002	1.000000000000000E+000	11	2.1598397E-002	1.1677374E-004	5.3989664E-003	2.8706930E-004	5.4065930E-003	3.0436168E+000	9.8223434E+001	1.8473064E+003	1.8499159E+003	-8.6956383E+001	0.0000000E+000	0.0000000E+000	0.0000000E+000	8.6956383E+001	0.0000000E+000	0.0000000E+000	0.0000000E+000	-8.6956383E+001	0.0000000E+000	0.0000000E+000	0.0000000E+000	-3.0436168E+000	0.0000000E+000	0.0000000E+000	0.0000000E+000	3.0436168E+000	1.8807188E+001	8.6956383E+001
3.4877225E+002	1.8617831E+002	1.1277938E+001	1.8651959E+002	-3.4665132E+000	09/05/2018 15:24:44.0805	-9.3418388E-003	2.7608576E-003	4.0462109E+001	1.4793094E-001	1.000000000000000E+000	11	2.1599662E-002	1.1580371E-004	5.3515574E-003	3.2417593E-004	5.3613670E-003	3.4665132E+000	1.4793098E+002	2.4420718E+003	2.4465481E+003	-8.6533485E+001	0.0000000E+000	0.0000000E+000	0.0000000E+000	8.6533485E+001	0.0000000E+000	0.0000000E+000	0.0000000E+000	-8.6533485E+001	0.0000000E+000	0.0000000E+000	0.0000000E+000	-3.4665132E+000	0.0000000E+000	0.0000000E+000	0.0000000E+000	3.4665132E+000	1.6508188E+001	8.6533485E+001
2.6142212E+002	1.8789940E+002	1.2928674E+001	1.8834366E+002	-3.9361105E+000	09/05/2018 15:24:45.7597	-9.3362620E-003	2.7569421E-003	4.7089474E+001	2.2188593E-001	1.000000000000000E+000	11	2.1594470E-002	1.1465462E-004	5.2969195E-003	3.6446177E-004	5.3094435E-003	3.9361105E+000	2.2188599E+002	3.2247881E+003	3.2324126E+003	-8.6063889E+001	0.0000000E+000	0.0000000E+000	0.0000000E+000	8.6063889E+001	0.0000000E+000	0.0000000E+000	0.0000000E+000	-8.6063889E+001	0.0000000E+000	0.0000000E+000	0.0000000E+000	-3.9361105E+000	0.0000000E+000	0.0000000E+000	0.0000000E+000	3.9361105E+000	1.4533540E+001	8.6063889E+001
1.9581453E+002	1.8984758E+002	1.4741784E+001	1.9041907E+002	-4.4401436E+000	09/05/2018 15:24:47.4399	-9.3360199E-003	2.7414663E-003	5.5134720E+001	3.3044896E-001	1.000000000000000E+000	11	2.1594336E-002	1.1340428E-004	5.2358136E-003	4.0656421E-004	5.2515748E-003	4.4401436E+000	3.3044870E+002	4.2555864E+003	4.2683970E+003	-8.5559860E+001	0.0000000E+000	0.0000000E+000	0.0000000E+000	8.5559860E+001	0.0000000E+000	0.0000000E+000	0.0000000E+000	-8.5559860E+001	0.0000000E+000	0.0000000E+000	0.0000000E+000	-4.4401436E+000	0.0000000E+000	0.0000000E+000	0.0000000E+000	4.4401436E+000	1.2878196E+001	8.5559860E+001
1.4673729E+002	1.9210646E+002	1.6990965E+001	1.9285638E+002	-5.0544057E+000	09/05/2018 15:24:49.1084	-9.3340054E-003	2.7336350E-003	6.3835400E+001	4.9548399E-001	1.000000000000000E+000	11	2.1593669E-002	1.1196762E-004	5.1650428E-003	4.5682516E-004	5.1852055E-003	5.0544057E+000	4.9548398E+002	5.6021348E+003	5.6240039E+003	-8.4945595E+001	0.0000000E+000	0.0000000E+000	0.0000000E+000	8.4945595E+001	0.0000000E+000	0.0000000E+000	0.0000000E+000	-8.4945595E+001	0.0000000E+000	0.0000000E+000	0.0000000E+000	-5.0544057E+000	0.0000000E+000	0.0000000E+000	0.0000000E+000	5.0544057E+000	1.1306389E+001	8.4945595E+001
1.0989450E+002	1.9477721E+002	1.9635260E+001	1.9576440E+002	-5.7564726E+000	09/05/2018 15:24:50.7969	-9.3394890E-003	2.7168540E-003	7.3757729E+001	7.4201620E-001	1.000000000000000E+000	11	2.1593537E-002	1.1030370E-004	5.0824215E-003	5.1235291E-004	5.1081809E-003	5.7564726E+000	7.4201581E+002	7.3606279E+003	7.3979341E+003	-8.4243530E+001	0.0000000E+000	0.0000000E+000	0.0000000E+000	8.4243530E+001	0.0000000E+000	0.0000000E+000	0.0000000E+000	-8.4243530E+001	0.0000000E+000	0.0000000E+000	0.0000000E+000	-5.7564726E+000	0.0000000E+000	0.0000000E+000	0.0000000E+000	5.7564726E+000	9.9197674E+000	8.4243530E+001
8.2345139E+001	1.9780888E+002	2.2641624E+001	1.9910046E+002	-6.5297785E+000	09/05/2018 15:24:52.4381	-9.3320096E-003	2.7960979E-003	8.5363960E+001	1.1039393E+000	1.000000000000000E+000	11	2.1596856E-002	1.0847215E-004	4.9900077E-003	5.7116686E-004	5.0225900E-003	6.5297785E+000	1.1039392E+003	9.6445830E+003	9.7075566E+003	-8.3470222E+001	0.0000000E+000	0.0000000E+000	0.0000000E+000	8.3470222E+001	0.0000000E+000	0.0000000E+000	0.0000000E+000	-8.3470222E+001	0.0000000E+000	0.0000000E+000	0.0000000E+000	-6.5297785E+000	0.0000000E+000	0.0000000E+000	0.0000000E+000	6.5297785E+000	8.7365150E+000	8.3470222E+001
