EC-Lab ASCII FILE
Nb header lines : 66                          

Potentio Electrochemical Impedance Spectroscopy

Run on channel : 7 (SN 13829)
User : 
CE vs. WE compliance from -10 V to 10 V
Electrode connection : standard
Potential control : Ewe
Ewe ctrl range : min = -1.00 V, max = 1.00 V
Safety Limits :
	Do not start on E overload
Acquisition started on : 09/05/2018 15:23:59.000
Loaded Setting File : NONE
Saved on :
	File : RM_stacked second run DS_12+3_1_C07.mpr
	Directory : D:\Robert\Stacked cells\Second run 3% and 12% PVDF electrodes 12%compressed\
	Host : 10.5.5.6
Device : VMP3 (SN 0628)
Address : 10.5.5.5
EC-Lab for windows v11.17 (software)
Internet server v11.16 (firmware)
Command interpretor v11.16 (firmware)
Electrode material : 
Initial state : 
Electrolyte : 
Comments : 
Electrode surface area : 0.001 cm²
Characteristic mass : 0.001 g
Equivalent Weight : 0.000 g/eq.
Density : 0.000 g/cm3
Volume (V) : 0.000 m³
Text export
   Mode : Standard
   Time format : Elapsed
Cycle Definition : Charge/Discharge alternance
Mode                Single sine         
E (V)               0.0000              
vs.                 Eoc                 
tE (h:m:s)          0:00:3.0000         
record              1                   
dI                  0.000               
unit dI             mA                  
dt (s)              60.000              
fi                  200.000             
unit fi             kHz                 
ff                  8.000               
unit ff             mHz                 
Nd                  8                   
Points              per decade          
spacing             Logarithmic         
Va (mV)             20.0                
pw                  3.00                
Na                  5                   
corr                0                   
E range min (V)     -1.000              
E range max (V)     1.000               
I Range             Auto                
Bandwidth           5                   
nc cycles           0                   
goto Ns'            0                   
nr cycles           0                   
inc. cycle          0                   

freq/Hz	Re(Z)/Ohm	-Im(Z)/Ohm	|Z|/Ohm	Phase(Z)/deg	time/s	<Ewe>/V	<I>/mA	Cs/µF	Cp/µF	cycle number	I Range	|Ewe|/V	|I|/A	Re(Y)/Ohm-1	Im(Y)/Ohm-1	|Y|/Ohm-1	Phase(Y)/deg	Re(C)/nF	Im(C)/nF	|C|/nF	Phase(C)/deg	Re(M)	Im(M)	|M|	Phase(M)/deg	Re(Permittivity)	Im(Permittivity)	|Permittivity|	Phase(Permittivity)/deg	Re(Resistivity)/Ohm.cm	Im(Resistivity)/Ohm.cm	|Resistivity|/Ohm.cm	Phase(Resistivity)/deg	Re(Conductivity)/mS/cm	Im(Conductivity)/mS/cm	|Conductivity|/mS/cm	Phase(Conductivity)/deg	Tan(Delta)	Loss Angle(Delta)/deg	
2.0001948E+005	1.5756207E+002	2.3799882E+000	1.5758005E+002	-8.6539167E-001	09/05/2018 15:24:04.3311	-2.3758754E-002	4.4896151E-003	3.3432823E-001	7.6264107E-005	1.000000000000000E+000	11	1.7966082E-002	1.1401241E-004	6.3452576E-003	9.5845637E-005	6.3459813E-003	8.6539167E-001	7.6264352E-002	5.0489030E+000	5.0494790E+000	-8.9134605E+001	0.0000000E+000	0.0000000E+000	0.0000000E+000	8.9134605E+001	0.0000000E+000	0.0000000E+000	0.0000000E+000	-8.9134605E+001	0.0000000E+000	0.0000000E+000	0.0000000E+000	-8.6539167E-001	0.0000000E+000	0.0000000E+000	0.0000000E+000	8.6539167E-001	6.6202881E+001	8.9134605E+001
1.4984372E+005	1.5705893E+002	2.4358957E+000	1.5707782E+002	-8.8855404E-001	09/05/2018 15:24:05.3961	-2.4111483E-002	2.3970746E-003	4.3603656E-001	1.0486016E-004	1.000000000000000E+000	11	2.0508192E-002	1.3056071E-004	6.3655055E-003	9.8725410E-005	6.3662711E-003	8.8855404E-001	1.0486057E-001	6.7610559E+000	6.7618690E+000	-8.9111443E+001	0.0000000E+000	0.0000000E+000	0.0000000E+000	8.9111443E+001	0.0000000E+000	0.0000000E+000	0.0000000E+000	-8.9111443E+001	0.0000000E+000	0.0000000E+000	0.0000000E+000	-8.8855404E-001	0.0000000E+000	0.0000000E+000	0.0000000E+000	8.8855404E-001	6.4476868E+001	8.9111443E+001
1.1226560E+005	1.5689066E+002	2.6067197E+000	1.5691231E+002	-9.5187503E-001	09/05/2018 15:24:06.4611	-2.4086082E-002	2.4490992E-003	5.4384995E-001	1.5009069E-004	1.000000000000000E+000	11	2.0735698E-002	1.3214831E-004	6.3721067E-003	1.0587180E-004	6.3729864E-003	9.5187503E-001	1.5009049E-001	9.0335093E+000	9.0347557E+000	-8.9048126E+001	0.0000000E+000	0.0000000E+000	0.0000000E+000	8.9048126E+001	0.0000000E+000	0.0000000E+000	0.0000000E+000	-8.9048126E+001	0.0000000E+000	0.0000000E+000	0.0000000E+000	-9.5187503E-001	0.0000000E+000	0.0000000E+000	0.0000000E+000	9.5187503E-001	6.0187004E+001	8.9048126E+001
8.4111305E+004	1.5706709E+002	2.8705013E+000	1.5709332E+002	-1.0470003E+000	09/05/2018 15:24:07.5241	-2.4087034E-002	2.4405217E-003	6.5918607E-001	2.2009392E-004	1.000000000000000E+000	11	2.0702368E-002	1.3178388E-004	6.3645802E-003	1.1631675E-004	6.3656429E-003	1.0470003E+000	2.2009322E-001	1.2043022E+001	1.2045033E+001	-8.8953003E+001	0.0000000E+000	0.0000000E+000	0.0000000E+000	8.8953003E+001	0.0000000E+000	0.0000000E+000	0.0000000E+000	-8.8953003E+001	0.0000000E+000	0.0000000E+000	0.0000000E+000	-1.0470003E+000	0.0000000E+000	0.0000000E+000	0.0000000E+000	1.0470003E+000	5.4717651E+001	8.8953003E+001
6.3017563E+004	1.5741783E+002	3.1700308E+000	1.5744975E+002	-1.1536484E+000	09/05/2018 15:24:08.5891	-2.4087239E-002	2.5093283E-003	7.9670036E-001	3.2295205E-004	1.000000000000000E+000	11	2.0579338E-002	1.3070417E-004	6.3499450E-003	1.2787319E-004	6.3512325E-003	1.1536484E+000	3.2295203E-001	1.6037197E+001	1.6040449E+001	-8.8846352E+001	0.0000000E+000	0.0000000E+000	0.0000000E+000	8.8846352E+001	0.0000000E+000	0.0000000E+000	0.0000000E+000	-8.8846352E+001	0.0000000E+000	0.0000000E+000	0.0000000E+000	-1.1536484E+000	0.0000000E+000	0.0000000E+000	0.0000000E+000	1.1536484E+000	4.9658138E+001	8.8846352E+001
4.7216781E+004	1.5798154E+002	3.3893275E+000	1.5801788E+002	-1.2290322E+000	09/05/2018 15:24:09.6541	-2.4081547E-002	2.4418267E-003	9.9451244E-001	4.5753553E-004	1.000000000000000E+000	11	2.0530952E-002	1.2992803E-004	6.3269418E-003	1.3573788E-004	6.3283974E-003	1.2290322E+000	4.5753640E-001	2.1326403E+001	2.1331310E+001	-8.8770966E+001	0.0000000E+000	0.0000000E+000	0.0000000E+000	8.8770966E+001	0.0000000E+000	0.0000000E+000	0.0000000E+000	-8.8770966E+001	0.0000000E+000	0.0000000E+000	0.0000000E+000	-1.2290322E+000	0.0000000E+000	0.0000000E+000	0.0000000E+000	1.2290322E+000	4.6611469E+001	8.8770966E+001
3.5371086E+004	1.5866273E+002	3.4952240E+000	1.5870123E+002	-1.2619801E+000	09/05/2018 15:24:10.7191	-2.4100939E-002	2.4090083E-003	1.2873503E+000	6.2443339E-004	1.000000000000000E+000	11	2.0369291E-002	1.2834993E-004	6.2996200E-003	1.3877603E-004	6.3011483E-003	1.2619801E+000	6.2443250E-001	2.8345627E+001	2.8352505E+001	-8.8738022E+001	0.0000000E+000	0.0000000E+000	0.0000000E+000	8.8738022E+001	0.0000000E+000	0.0000000E+000	0.0000000E+000	-8.8738022E+001	0.0000000E+000	0.0000000E+000	0.0000000E+000	-1.2619801E+000	0.0000000E+000	0.0000000E+000	0.0000000E+000	1.2619801E+000	4.5394154E+001	8.8738022E+001
2.6503898E+004	1.5932309E+002	3.5239294E+000	1.5936206E+002	-1.2670690E+000	09/05/2018 15:24:11.7831	-2.4093417E-002	2.4869516E-003	1.7040533E+000	8.3323533E-004	1.000000000000000E+000	11	2.0303095E-002	1.2740231E-004	6.2734848E-003	1.3875776E-004	6.2750191E-003	1.2670690E+000	8.3323389E-001	3.7672047E+001	3.7681259E+001	-8.8732933E+001	0.0000000E+000	0.0000000E+000	0.0000000E+000	8.8732933E+001	0.0000000E+000	0.0000000E+000	0.0000000E+000	-8.8732933E+001	0.0000000E+000	0.0000000E+000	0.0000000E+000	-1.2670690E+000	0.0000000E+000	0.0000000E+000	0.0000000E+000	1.2670690E+000	4.5211773E+001	8.8732933E+001
1.9853508E+004	1.6001120E+002	3.5266588E+000	1.6005006E+002	-1.2625988E+000	09/05/2018 15:24:12.7221	-2.4084160E-002	2.4170268E-003	2.2731049E+000	1.1036582E-003	1.000000000000000E+000	11	2.1861592E-002	1.3659221E-004	6.2465277E-003	1.3767392E-004	6.2480448E-003	1.2625988E+000	1.1036559E+000	5.0075069E+001	5.0087231E+001	-8.8737404E+001	0.0000000E+000	0.0000000E+000	0.0000000E+000	8.8737404E+001	0.0000000E+000	0.0000000E+000	0.0000000E+000	-8.8737404E+001	0.0000000E+000	0.0000000E+000	0.0000000E+000	-1.2625988E+000	0.0000000E+000	0.0000000E+000	0.0000000E+000	1.2625988E+000	4.5371899E+001	8.8737404E+001
1.4873044E+004	1.6057018E+002	3.4982049E+000	1.6060828E+002	-1.2480567E+000	09/05/2018 15:24:13.7861	-2.4079829E-002	2.4936646E-003	3.0589685E+000	1.4512080E-003	1.000000000000000E+000	11	2.0268766E-002	1.2620002E-004	6.2248521E-003	1.3561553E-004	6.2263291E-003	1.2480567E+000	1.4512055E+000	6.6611511E+001	6.6627319E+001	-8.8751945E+001	0.0000000E+000	0.0000000E+000	0.0000000E+000	8.8751945E+001	0.0000000E+000	0.0000000E+000	0.0000000E+000	-8.8751945E+001	0.0000000E+000	0.0000000E+000	0.0000000E+000	-1.2480567E+000	0.0000000E+000	0.0000000E+000	0.0000000E+000	1.2480567E+000	4.5900734E+001	8.8751945E+001
1.1142573E+004	1.6113203E+002	3.4971817E+000	1.6116998E+002	-1.2433424E+000	09/05/2018 15:24:14.7251	-2.4086120E-002	2.3398288E-003	4.0842886E+000	1.9230231E-003	1.000000000000000E+000	11	2.0842001E-002	1.2931689E-004	6.2031685E-003	1.3463249E-004	6.2046293E-003	1.2433424E+000	1.9230186E+000	8.8602951E+001	8.8623817E+001	-8.8756660E+001	0.0000000E+000	0.0000000E+000	0.0000000E+000	8.8756660E+001	0.0000000E+000	0.0000000E+000	0.0000000E+000	-8.8756660E+001	0.0000000E+000	0.0000000E+000	0.0000000E+000	-1.2433424E+000	0.0000000E+000	0.0000000E+000	0.0000000E+000	1.2433424E+000	4.6074825E+001	8.8756660E+001
8.4128252E+003	1.6164793E+002	3.5996234E+000	1.6168800E+002	-1.2756684E+000	09/05/2018 15:24:15.8053	-2.4068277E-002	2.5315180E-003	5.2555866E+000	2.6048322E-003	1.000000000000000E+000	11	2.1175765E-002	1.3096683E-004	6.1832177E-003	1.3768971E-004	6.1847507E-003	1.2756684E+000	2.6048260E+000	1.1697494E+002	1.1700394E+002	-8.8724335E+001	0.0000000E+000	0.0000000E+000	0.0000000E+000	8.8724335E+001	0.0000000E+000	0.0000000E+000	0.0000000E+000	-8.8724335E+001	0.0000000E+000	0.0000000E+000	0.0000000E+000	-1.2756684E+000	0.0000000E+000	0.0000000E+000	0.0000000E+000	1.2756684E+000	4.4906902E+001	8.8724335E+001
6.2954487E+003	1.6211990E+002	3.7082503E+000	1.6216231E+002	-1.3103268E+000	09/05/2018 15:24:17.2035	-2.4089254E-002	2.2937716E-003	6.8174882E+000	3.5650253E-003	1.000000000000000E+000	11	2.1374496E-002	1.3180927E-004	6.1650486E-003	1.4101627E-004	6.1666612E-003	1.3103268E+000	3.5650227E+000	1.5585831E+002	1.5589908E+002	-8.8689674E+001	0.0000000E+000	0.0000000E+000	0.0000000E+000	8.8689674E+001	0.0000000E+000	0.0000000E+000	0.0000000E+000	-8.8689674E+001	0.0000000E+000	0.0000000E+000	0.0000000E+000	-1.3103268E+000	0.0000000E+000	0.0000000E+000	0.0000000E+000	1.3103268E+000	4.3718704E+001	8.8689674E+001
4.6855010E+003	1.6276611E+002	3.9249752E+000	1.6281343E+002	-1.3813744E+000	09/05/2018 15:24:18.8939	-2.4080856E-002	2.3739529E-003	8.6542053E+000	5.0294506E-003	1.000000000000000E+000	11	2.1492489E-002	1.3200685E-004	6.1402144E-003	1.4806638E-004	6.1419993E-003	1.3813744E+000	5.0294642E+000	2.0856796E+002	2.0862860E+002	-8.8618622E+001	0.0000000E+000	0.0000000E+000	0.0000000E+000	8.8618622E+001	0.0000000E+000	0.0000000E+000	0.0000000E+000	-8.8618622E+001	0.0000000E+000	0.0000000E+000	0.0000000E+000	-1.3813744E+000	0.0000000E+000	0.0000000E+000	0.0000000E+000	1.3813744E+000	4.1469337E+001	8.8618622E+001
3.5111226E+003	1.6332674E+002	4.2580523E+000	1.6338223E+002	-1.4934063E+000	09/05/2018 15:24:20.5817	-2.4091495E-002	2.2950768E-003	1.0645429E+001	7.2306194E-003	1.000000000000000E+000	11	2.1554919E-002	1.3192940E-004	6.1185374E-003	1.5951494E-004	6.1206166E-003	1.4934063E+000	7.2306275E+000	2.7734589E+002	2.7744012E+002	-8.8506592E+001	0.0000000E+000	0.0000000E+000	0.0000000E+000	8.8506592E+001	0.0000000E+000	0.0000000E+000	0.0000000E+000	-8.8506592E+001	0.0000000E+000	0.0000000E+000	0.0000000E+000	-1.4934063E+000	0.0000000E+000	0.0000000E+000	0.0000000E+000	1.4934063E+000	3.8357147E+001	8.8506592E+001
2.6308411E+003	1.6394684E+002	4.6503310E+000	1.6401277E+002	-1.6247518E+000	09/05/2018 15:24:22.2687	-2.4080127E-002	2.3536277E-003	1.3008932E+001	1.0458130E-002	1.000000000000000E+000	11	2.1583654E-002	1.3159739E-004	6.0946350E-003	1.7287354E-004	6.0970862E-003	1.6247518E+000	1.0458107E+001	3.6870007E+002	3.6884836E+002	-8.8375252E+001	0.0000000E+000	0.0000000E+000	0.0000000E+000	8.8375252E+001	0.0000000E+000	0.0000000E+000	0.0000000E+000	-8.8375252E+001	0.0000000E+000	0.0000000E+000	0.0000000E+000	-1.6247518E+000	0.0000000E+000	0.0000000E+000	0.0000000E+000	1.6247518E+000	3.5254875E+001	8.8375252E+001
1.9706301E+003	1.6469215E+002	5.1510496E+000	1.6477269E+002	-1.7914468E+000	09/05/2018 15:24:23.9557	-2.4081042E-002	2.3057056E-003	1.5679033E+001	1.5322876E-002	1.000000000000000E+000	11	2.1606833E-002	1.3113115E-004	6.0660006E-003	1.8972531E-004	6.0689668E-003	1.7914468E+000	1.5322907E+001	4.8991129E+002	4.9015085E+002	-8.8208549E+001	0.0000000E+000	0.0000000E+000	0.0000000E+000	8.8208549E+001	0.0000000E+000	0.0000000E+000	0.0000000E+000	-8.8208549E+001	0.0000000E+000	0.0000000E+000	0.0000000E+000	-1.7914468E+000	0.0000000E+000	0.0000000E+000	0.0000000E+000	1.7914468E+000	3.1972542E+001	8.8208549E+001
1.4773634E+003	1.6545978E+002	5.7784443E+000	1.6556065E+002	-2.0001597E+000	09/05/2018 15:24:25.6424	-2.4088526E-002	2.2616989E-003	1.8643261E+001	2.2710646E-002	1.000000000000000E+000	11	2.1613048E-002	1.3054459E-004	6.0364022E-003	2.1081266E-004	6.0400823E-003	2.0001597E+000	2.2710653E+001	6.5029590E+002	6.5069232E+002	-8.7999840E+001	0.0000000E+000	0.0000000E+000	0.0000000E+000	8.7999840E+001	0.0000000E+000	0.0000000E+000	0.0000000E+000	-8.7999840E+001	0.0000000E+000	0.0000000E+000	0.0000000E+000	-2.0001597E+000	0.0000000E+000	0.0000000E+000	0.0000000E+000	2.0001597E+000	2.8633966E+001	8.7999840E+001
1.1067709E+003	1.6635753E+002	6.4986424E+000	1.6648441E+002	-2.2370830E+000	09/05/2018 15:24:27.3264	-2.4090355E-002	2.2654282E-003	2.2127878E+001	3.3716146E-002	1.000000000000000E+000	11	2.1617483E-002	1.2984690E-004	6.0019908E-003	2.3446367E-004	6.0065687E-003	2.2370830E+000	3.3716156E+001	8.6309326E+002	8.6375159E+002	-8.7762917E+001	0.0000000E+000	0.0000000E+000	0.0000000E+000	8.7762917E+001	0.0000000E+000	0.0000000E+000	0.0000000E+000	-8.7762917E+001	0.0000000E+000	0.0000000E+000	0.0000000E+000	-2.2370830E+000	0.0000000E+000	0.0000000E+000	0.0000000E+000	2.2370830E+000	2.5598812E+001	8.7762917E+001
8.2920349E+002	1.6737325E+002	7.3312039E+000	1.6753372E+002	-2.5080397E+000	09/05/2018 15:24:29.0150	-2.4085915E-002	2.2891096E-003	2.6180847E+001	5.0133709E-002	1.000000000000000E+000	11	2.1620929E-002	1.2905420E-004	5.9632296E-003	2.6119858E-004	5.9689474E-003	2.5080397E+000	5.0133743E+001	1.1445653E+003	1.1456627E+003	-8.7491959E+001	0.0000000E+000	0.0000000E+000	0.0000000E+000	8.7491959E+001	0.0000000E+000	0.0000000E+000	0.0000000E+000	-8.7491959E+001	0.0000000E+000	0.0000000E+000	0.0000000E+000	-2.5080397E+000	0.0000000E+000	0.0000000E+000	0.0000000E+000	2.5080397E+000	2.2830254E+001	8.7491959E+001
6.2099347E+002	1.6851247E+002	8.3378334E+000	1.6871861E+002	-2.8326294E+000	09/05/2018 15:24:30.7004	-2.4095247E-002	2.2158278E-003	3.0738300E+001	7.5068943E-002	1.000000000000000E+000	11	2.1622196E-002	1.2815537E-004	5.9197862E-003	2.9290529E-004	5.9270281E-003	2.8326294E+000	7.5068863E+001	1.5171870E+003	1.5190431E+003	-8.7167374E+001	0.0000000E+000	0.0000000E+000	0.0000000E+000	8.7167374E+001	0.0000000E+000	0.0000000E+000	0.0000000E+000	-8.7167374E+001	0.0000000E+000	0.0000000E+000	0.0000000E+000	-2.8326294E+000	0.0000000E+000	0.0000000E+000	0.0000000E+000	2.8326294E+000	2.0210583E+001	8.7167374E+001
4.6514874E+002	1.6981441E+002	9.5328598E+000	1.7008177E+002	-3.2130368E+000	09/05/2018 15:24:32.3877	-2.4087725E-002	2.2389493E-003	3.5892612E+001	1.1275504E-001	1.000000000000000E+000	11	2.1624293E-002	1.2714056E-004	5.8702822E-003	3.2953962E-004	5.8795246E-003	3.2130368E+000	1.1275500E+002	2.0085715E+003	2.0117339E+003	-8.6786964E+001	0.0000000E+000	0.0000000E+000	0.0000000E+000	8.6786964E+001	0.0000000E+000	0.0000000E+000	0.0000000E+000	-8.6786964E+001	0.0000000E+000	0.0000000E+000	0.0000000E+000	-3.2130368E+000	0.0000000E+000	0.0000000E+000	0.0000000E+000	3.2130368E+000	1.7813585E+001	8.6786964E+001
3.4877225E+002	1.7127841E+002	1.0889258E+001	1.7162421E+002	-3.6377614E+000	09/05/2018 15:24:34.0825	-2.4089534E-002	2.2255238E-003	4.1906361E+001	1.6870169E-001	1.000000000000000E+000	11	2.1622727E-002	1.2598879E-004	5.8149439E-003	3.6969298E-004	5.8266837E-003	3.6377614E+000	1.6870181E+002	2.6535283E+003	2.6588857E+003	-8.6362236E+001	0.0000000E+000	0.0000000E+000	0.0000000E+000	8.6362236E+001	0.0000000E+000	0.0000000E+000	0.0000000E+000	-8.6362236E+001	0.0000000E+000	0.0000000E+000	0.0000000E+000	-3.6377614E+000	0.0000000E+000	0.0000000E+000	0.0000000E+000	3.6377614E+000	1.5729116E+001	8.6362236E+001
2.6142212E+002	1.7292584E+002	1.2478440E+001	1.7337549E+002	-4.1273465E+000	09/05/2018 15:24:35.7616	-2.4085037E-002	2.2589017E-003	4.8788506E+001	2.5273344E-001	1.000000000000000E+000	11	2.1622548E-002	1.2471514E-004	5.7528694E-003	4.1513078E-004	5.7678279E-003	4.1273465E+000	2.5273364E+002	3.5023721E+003	3.5114790E+003	-8.5872650E+001	0.0000000E+000	0.0000000E+000	0.0000000E+000	8.5872650E+001	0.0000000E+000	0.0000000E+000	0.0000000E+000	-8.5872650E+001	0.0000000E+000	0.0000000E+000	0.0000000E+000	-4.1273465E+000	0.0000000E+000	0.0000000E+000	0.0000000E+000	4.1273465E+000	1.3857969E+001	8.5872650E+001
1.9581453E+002	1.7491904E+002	1.4367631E+001	1.7550812E+002	-4.6956625E+000	09/05/2018 15:24:37.4429	-2.4092166E-002	2.1928921E-003	5.6570507E+001	3.7911063E-001	1.000000000000000E+000	11	2.1625452E-002	1.2321625E-004	5.6786183E-003	4.6643461E-004	5.6977421E-003	4.6956625E+000	3.7911069E+002	4.6154907E+003	4.6310342E+003	-8.5304337E+001	0.0000000E+000	0.0000000E+000	0.0000000E+000	8.5304337E+001	0.0000000E+000	0.0000000E+000	0.0000000E+000	-8.5304337E+001	0.0000000E+000	0.0000000E+000	0.0000000E+000	-4.6956625E+000	0.0000000E+000	0.0000000E+000	0.0000000E+000	4.6956625E+000	1.2174521E+001	8.5304337E+001
1.4673729E+002	1.7707059E+002	1.6579908E+001	1.7784512E+002	-5.3492622E+000	09/05/2018 15:24:39.1124	-2.4089647E-002	2.1988594E-003	6.5418037E+001	5.6856203E-001	1.000000000000000E+000	11	2.1621605E-002	1.2157547E-004	5.5983816E-003	5.2420143E-004	5.6228698E-003	5.3492622E+000	5.6856165E+002	6.0721455E+003	6.0987061E+003	-8.4650742E+001	0.0000000E+000	0.0000000E+000	0.0000000E+000	8.4650742E+001	0.0000000E+000	0.0000000E+000	0.0000000E+000	-8.4650742E+001	0.0000000E+000	0.0000000E+000	0.0000000E+000	-5.3492622E+000	0.0000000E+000	0.0000000E+000	0.0000000E+000	5.3492622E+000	1.0679829E+001	8.4650742E+001
1.0989450E+002	1.7965872E+002	1.9035906E+001	1.8066440E+002	-6.0482607E+000	09/05/2018 15:24:40.8009	-2.4082350E-002	2.2122851E-003	7.6080025E+001	8.4464180E-001	1.000000000000000E+000	11	2.1623639E-002	1.1968954E-004	5.5043134E-003	5.8321463E-004	5.5351248E-003	6.0482607E+000	8.4464221E+002	7.9716338E+003	8.0162563E+003	-8.3951736E+001	0.0000000E+000	0.0000000E+000	0.0000000E+000	8.3951736E+001	0.0000000E+000	0.0000000E+000	0.0000000E+000	-8.3951736E+001	0.0000000E+000	0.0000000E+000	0.0000000E+000	-6.0482607E+000	0.0000000E+000	0.0000000E+000	0.0000000E+000	6.0482607E+000	9.4378862E+000	8.3951736E+001
8.2345139E+001	1.8259210E+002	2.2023159E+001	1.8391545E+002	-6.8774500E+000	09/05/2018 15:24:42.4421	-2.4089666E-002	2.2320503E-003	8.7761200E+001	1.2584193E+000	1.000000000000000E+000	11	2.1617606E-002	1.1754100E-004	5.3981575E-003	6.5109326E-004	5.4372810E-003	6.8774500E+000	1.2584192E+003	1.0433445E+004	1.0509063E+004	-8.3122551E+001	0.0000000E+000	0.0000000E+000	0.0000000E+000	8.3122551E+001	0.0000000E+000	0.0000000E+000	0.0000000E+000	-8.3122551E+001	0.0000000E+000	0.0000000E+000	0.0000000E+000	-6.8774500E+000	0.0000000E+000	0.0000000E+000	0.0000000E+000	6.8774500E+000	8.2909136E+000	8.3122551E+001
