EC-Lab ASCII FILE
Nb header lines : 66                          

Potentio Electrochemical Impedance Spectroscopy

Run on channel : 3 (SN 13993)
User : 
CE vs. WE compliance from -10 V to 10 V
Electrode connection : standard
Potential control : Ewe
Ewe ctrl range : min = -1.00 V, max = 1.00 V
Safety Limits :
	Do not start on E overload
Acquisition started on : 09/05/2018 13:40:25.000
Loaded Setting File : NONE
Saved on :
	File : RM_stacked second run S3_1_C03.mpr
	Directory : D:\Robert\Stacked cells\Second run 3% and 12% PVDF electrodes 12%compressed\
	Host : 10.5.5.6
Device : VMP3 (SN 0628)
Address : 10.5.5.5
EC-Lab for windows v11.17 (software)
Internet server v11.16 (firmware)
Command interpretor v11.16 (firmware)
Electrode material : 
Initial state : 
Electrolyte : 
Comments : 
Electrode surface area : 0.001 cm²
Characteristic mass : 0.001 g
Equivalent Weight : 0.000 g/eq.
Density : 0.000 g/cm3
Volume (V) : 0.000 m³
Text export
   Mode : Standard
   Time format : Elapsed
Cycle Definition : Charge/Discharge alternance
Mode                Single sine         
E (V)               0.0000              
vs.                 Eoc                 
tE (h:m:s)          0:00:3.0000         
record              1                   
dI                  0.000               
unit dI             mA                  
dt (s)              60.000              
fi                  200.000             
unit fi             kHz                 
ff                  10.000              
unit ff             mHz                 
Nd                  8                   
Points              per decade          
spacing             Logarithmic         
Va (mV)             20.0                
pw                  3.00                
Na                  5                   
corr                0                   
E range min (V)     -1.000              
E range max (V)     1.000               
I Range             Auto                
Bandwidth           5                   
nc cycles           0                   
goto Ns'            0                   
nr cycles           0                   
inc. cycle          0                   

freq/Hz	Re(Z)/Ohm	-Im(Z)/Ohm	|Z|/Ohm	Phase(Z)/deg	time/s	<Ewe>/V	<I>/mA	Cs/µF	Cp/µF	cycle number	I Range	|Ewe|/V	|I|/A	Re(Y)/Ohm-1	Im(Y)/Ohm-1	|Y|/Ohm-1	Phase(Y)/deg	Re(C)/nF	Im(C)/nF	|C|/nF	Phase(C)/deg	Re(M)	Im(M)	|M|	Phase(M)/deg	Re(Permittivity)	Im(Permittivity)	|Permittivity|	Phase(Permittivity)/deg	Re(Resistivity)/Ohm.cm	Im(Resistivity)/Ohm.cm	|Resistivity|/Ohm.cm	Phase(Resistivity)/deg	Re(Conductivity)/mS/cm	Im(Conductivity)/mS/cm	|Conductivity|/mS/cm	Phase(Conductivity)/deg	Tan(Delta)	Loss Angle(Delta)/deg	
2.0001948E+005	1.6017896E+002	9.5227951E-001	1.6018179E+002	-3.4062499E-001	09/05/2018 13:40:30.3331	-1.3755023E-003	2.2612459E-003	8.3557105E-001	2.9531531E-005	1.000000000000000E+000	11	1.8219475E-002	1.1374248E-004	6.2427963E-003	3.7114034E-005	6.2429067E-003	3.4062499E-001	2.9531270E-002	4.9673758E+000	4.9674635E+000	-8.9659378E+001	0.0000000E+000	0.0000000E+000	0.0000000E+000	8.9659378E+001	0.0000000E+000	0.0000000E+000	0.0000000E+000	-8.9659378E+001	0.0000000E+000	0.0000000E+000	0.0000000E+000	-3.4062499E-001	0.0000000E+000	0.0000000E+000	0.0000000E+000	3.4062499E-001	1.6820583E+002	8.9659378E+001
1.4967770E+005	1.5959976E+002	1.4208120E+000	1.5960608E+002	-5.1005328E-001	09/05/2018 13:40:31.3981	-1.3370469E-003	2.4219777E-003	7.4838728E-001	5.9306294E-005	1.000000000000000E+000	11	2.0499049E-002	1.2843526E-004	6.2651774E-003	5.5774766E-005	6.2654256E-003	5.1005328E-001	5.9306558E-002	6.6618738E+000	6.6621380E+000	-8.9489944E+001	0.0000000E+000	0.0000000E+000	0.0000000E+000	8.9489944E+001	0.0000000E+000	0.0000000E+000	0.0000000E+000	-8.9489944E+001	0.0000000E+000	0.0000000E+000	0.0000000E+000	-5.1005328E-001	0.0000000E+000	0.0000000E+000	0.0000000E+000	5.1005328E-001	1.1232996E+002	8.9489944E+001
1.1201170E+005	1.5949899E+002	1.9608412E+000	1.5951105E+002	-7.0434463E-001	09/05/2018 13:40:32.4631	-1.3175955E-003	2.4072644E-003	7.2462672E-001	1.0950088E-004	1.000000000000000E+000	11	2.0754647E-002	1.3011416E-004	6.2686848E-003	7.7065655E-005	6.2691583E-003	7.0434463E-001	1.0950105E-001	8.9070349E+000	8.9077082E+000	-8.9295654E+001	0.0000000E+000	0.0000000E+000	0.0000000E+000	8.9295654E+001	0.0000000E+000	0.0000000E+000	0.0000000E+000	-8.9295654E+001	0.0000000E+000	0.0000000E+000	0.0000000E+000	-7.0434463E-001	0.0000000E+000	0.0000000E+000	0.0000000E+000	7.0434463E-001	8.1342125E+001	8.9295654E+001
8.3828102E+004	1.5979938E+002	2.5517802E+000	1.5981975E+002	-9.1485846E-001	09/05/2018 13:40:33.5281	-1.3058763E-003	2.4111753E-003	7.4402446E-001	1.8967621E-004	1.000000000000000E+000	11	2.0698786E-002	1.2951331E-004	6.2562511E-003	9.9903882E-005	6.2570488E-003	9.1485846E-001	1.8967572E-001	1.1878038E+001	1.1879553E+001	-8.9085144E+001	0.0000000E+000	0.0000000E+000	0.0000000E+000	8.9085144E+001	0.0000000E+000	0.0000000E+000	0.0000000E+000	-8.9085144E+001	0.0000000E+000	0.0000000E+000	0.0000000E+000	-9.1485846E-001	0.0000000E+000	0.0000000E+000	0.0000000E+000	9.1485846E-001	6.2622704E+001	8.9085144E+001
6.2734359E+004	1.6028770E+002	2.9412785E+000	1.6031468E+002	-1.0512593E+000	09/05/2018 13:40:34.5931	-1.2919399E-003	2.4702160E-003	8.6253864E-001	2.9033824E-004	1.000000000000000E+000	11	2.0601779E-002	1.2850837E-004	6.2366817E-003	1.1444308E-004	6.2377318E-003	1.0512593E+000	2.9033896E-001	1.5822251E+001	1.5824915E+001	-8.8948738E+001	0.0000000E+000	0.0000000E+000	0.0000000E+000	8.8948738E+001	0.0000000E+000	0.0000000E+000	0.0000000E+000	-8.8948738E+001	0.0000000E+000	0.0000000E+000	0.0000000E+000	-1.0512593E+000	0.0000000E+000	0.0000000E+000	0.0000000E+000	1.0512593E+000	5.4495930E+001	8.8948738E+001
4.6953109E+004	1.6090038E+002	3.1784549E+000	1.6093176E+002	-1.1316839E+000	09/05/2018 13:40:35.6581	-1.2839469E-003	2.4772931E-003	1.0664481E+000	4.1599516E-004	1.000000000000000E+000	11	2.0504633E-002	1.2741197E-004	6.2126014E-003	1.2272484E-004	6.2138136E-003	1.1316839E+000	4.1599494E-001	2.1058590E+001	2.1062698E+001	-8.8868317E+001	0.0000000E+000	0.0000000E+000	0.0000000E+000	8.8868317E+001	0.0000000E+000	0.0000000E+000	0.0000000E+000	-8.8868317E+001	0.0000000E+000	0.0000000E+000	0.0000000E+000	-1.1316839E+000	0.0000000E+000	0.0000000E+000	0.0000000E+000	1.1316839E+000	5.0622200E+001	8.8868317E+001
3.5136707E+004	1.6154860E+002	3.2418747E+000	1.6158113E+002	-1.1496280E+000	09/05/2018 13:40:36.7231	-1.2830340E-003	2.4474938E-003	1.3972137E+000	5.6243717E-004	1.000000000000000E+000	11	2.0349758E-002	1.2594143E-004	6.1875959E-003	1.2416950E-004	6.1888415E-003	1.1496280E+000	5.6243700E-001	2.8027285E+001	2.8032927E+001	-8.8850372E+001	0.0000000E+000	0.0000000E+000	0.0000000E+000	8.8850372E+001	0.0000000E+000	0.0000000E+000	0.0000000E+000	-8.8850372E+001	0.0000000E+000	0.0000000E+000	0.0000000E+000	-1.1496280E+000	0.0000000E+000	0.0000000E+000	0.0000000E+000	1.1496280E+000	4.9831844E+001	8.8850372E+001
2.6298820E+004	1.6225348E+002	3.2782016E+000	1.6228659E+002	-1.1574578E+000	09/05/2018 13:40:37.7881	-1.2717247E-003	2.4560613E-003	1.8460703E+000	7.5327622E-004	1.000000000000000E+000	11	2.0294612E-002	1.2505415E-004	6.1606811E-003	1.2447163E-004	6.1619384E-003	1.1574578E+000	7.5327462E-001	3.7283150E+001	3.7290760E+001	-8.8842545E+001	0.0000000E+000	0.0000000E+000	0.0000000E+000	8.8842545E+001	0.0000000E+000	0.0000000E+000	0.0000000E+000	-8.8842545E+001	0.0000000E+000	0.0000000E+000	0.0000000E+000	-1.1574578E+000	0.0000000E+000	0.0000000E+000	0.0000000E+000	1.1574578E+000	4.9494663E+001	8.8842545E+001
1.9677732E+004	1.6282373E+002	3.2075655E+000	1.6285532E+002	-1.1285591E+000	09/05/2018 13:40:38.7271	-1.2653340E-003	2.4340847E-003	2.5215614E+000	9.7817543E-004	1.000000000000000E+000	11	2.1847965E-002	1.3415568E-004	6.1392286E-003	1.2094047E-004	6.1404197E-003	1.1285591E+000	9.7817212E-001	4.9654533E+001	4.9664165E+001	-8.8871445E+001	0.0000000E+000	0.0000000E+000	0.0000000E+000	8.8871445E+001	0.0000000E+000	0.0000000E+000	0.0000000E+000	-8.8871445E+001	0.0000000E+000	0.0000000E+000	0.0000000E+000	-1.1285591E+000	0.0000000E+000	0.0000000E+000	0.0000000E+000	1.1285591E+000	5.0762402E+001	8.8871445E+001
1.4726557E+004	1.6339340E+002	3.2135172E+000	1.6342500E+002	-1.1267115E+000	09/05/2018 13:40:39.7921	-1.2656695E-003	2.4536399E-003	3.3630886E+000	1.3003568E-003	1.000000000000000E+000	11	2.0264491E-002	1.2399872E-004	6.1178314E-003	1.2032160E-004	6.1190147E-003	1.1267115E+000	1.3003539E+000	6.6117500E+001	6.6130287E+001	-8.8873291E+001	0.0000000E+000	0.0000000E+000	0.0000000E+000	8.8873291E+001	0.0000000E+000	0.0000000E+000	0.0000000E+000	-8.8873291E+001	0.0000000E+000	0.0000000E+000	0.0000000E+000	-1.1267115E+000	0.0000000E+000	0.0000000E+000	0.0000000E+000	1.1267115E+000	5.0845661E+001	8.8873291E+001
1.1025388E+004	1.6387897E+002	3.2068007E+000	1.6391034E+002	-1.1210266E+000	09/05/2018 13:40:40.7311	-1.2689113E-003	2.3769056E-003	4.5014691E+000	1.7230010E-003	1.000000000000000E+000	11	2.0834202E-002	1.2710731E-004	6.0997284E-003	1.1936011E-004	6.1008963E-003	1.1210266E+000	1.7229985E+000	8.8051506E+001	8.8068359E+001	-8.8878975E+001	0.0000000E+000	0.0000000E+000	0.0000000E+000	8.8878975E+001	0.0000000E+000	0.0000000E+000	0.0000000E+000	-8.8878975E+001	0.0000000E+000	0.0000000E+000	0.0000000E+000	-1.1210266E+000	0.0000000E+000	0.0000000E+000	0.0000000E+000	1.1210266E+000	5.1103573E+001	8.8878975E+001
8.3251924E+003	1.6433118E+002	3.3077271E+000	1.6436446E+002	-1.1531179E+000	09/05/2018 13:40:41.8236	-1.2539502E-003	2.5367066E-003	5.7795787E+000	2.3406674E-003	1.000000000000000E+000	11	2.1164469E-002	1.2876549E-004	6.0828081E-003	1.2243733E-004	6.0840403E-003	1.1531179E+000	2.3406603E+000	1.1628670E+002	1.1631025E+002	-8.8846886E+001	0.0000000E+000	0.0000000E+000	0.0000000E+000	8.8846886E+001	0.0000000E+000	0.0000000E+000	0.0000000E+000	-8.8846886E+001	0.0000000E+000	0.0000000E+000	0.0000000E+000	-1.1531179E+000	0.0000000E+000	0.0000000E+000	0.0000000E+000	1.1531179E+000	4.9680996E+001	8.8846886E+001
6.1954932E+003	1.6484610E+002	3.4643018E+000	1.6488249E+002	-1.2039149E+000	09/05/2018 13:40:43.2388	-1.2665824E-003	2.2307013E-003	7.4152966E+000	3.2734892E-003	1.000000000000000E+000	11	2.1370275E-002	1.2960912E-004	6.0635866E-003	1.2742852E-004	6.0649253E-003	1.2039149E+000	3.2734988E+000	1.5576642E+002	1.5580081E+002	-8.8796082E+001	0.0000000E+000	0.0000000E+000	0.0000000E+000	8.8796082E+001	0.0000000E+000	0.0000000E+000	0.0000000E+000	-8.8796082E+001	0.0000000E+000	0.0000000E+000	0.0000000E+000	-1.2039149E+000	0.0000000E+000	0.0000000E+000	0.0000000E+000	1.2039149E+000	4.7584221E+001	8.8796082E+001
4.6214780E+003	1.6533904E+002	3.7010033E+000	1.6538045E+002	-1.2823135E+000	09/05/2018 13:40:44.9267	-1.2620363E-003	2.2198989E-003	9.3050718E+000	4.6600481E-003	1.000000000000000E+000	11	2.1480851E-002	1.2988748E-004	6.0451496E-003	1.3531662E-004	6.0466640E-003	1.2823135E+000	4.6600375E+000	2.0818350E+002	2.0823566E+002	-8.8717690E+001	0.0000000E+000	0.0000000E+000	0.0000000E+000	8.8717690E+001	0.0000000E+000	0.0000000E+000	0.0000000E+000	-8.8717690E+001	0.0000000E+000	0.0000000E+000	0.0000000E+000	-1.2823135E+000	0.0000000E+000	0.0000000E+000	0.0000000E+000	1.2823135E+000	4.4674110E+001	8.8717690E+001
3.4561052E+003	1.6597533E+002	4.0378871E+000	1.6602443E+002	-1.3936305E+000	09/05/2018 13:40:46.6147	-1.2663588E-003	2.2543548E-003	1.1404572E+001	6.7459536E-003	1.000000000000000E+000	11	2.1543844E-002	1.2976310E-004	6.0214284E-003	1.4649074E-004	6.0232100E-003	1.3936305E+000	6.7459559E+000	2.7728903E+002	2.7737106E+002	-8.8606369E+001	0.0000000E+000	0.0000000E+000	0.0000000E+000	8.8606369E+001	0.0000000E+000	0.0000000E+000	0.0000000E+000	-8.8606369E+001	0.0000000E+000	0.0000000E+000	0.0000000E+000	-1.3936305E+000	0.0000000E+000	0.0000000E+000	0.0000000E+000	1.3936305E+000	4.1104500E+001	8.8606369E+001
2.5858269E+003	1.6660913E+002	4.4943762E+000	1.6666974E+002	-1.5452116E+000	09/05/2018 13:40:48.3007	-1.2692281E-003	2.2560311E-003	1.3694661E+001	9.9581024E-003	1.000000000000000E+000	11	2.1581344E-002	1.2948568E-004	5.9977076E-003	1.6179157E-004	5.9998892E-003	1.5452116E+000	9.9581041E+000	3.6915265E+002	3.6928693E+002	-8.8454788E+001	0.0000000E+000	0.0000000E+000	0.0000000E+000	8.8454788E+001	0.0000000E+000	0.0000000E+000	0.0000000E+000	-8.8454788E+001	0.0000000E+000	0.0000000E+000	0.0000000E+000	-1.5452116E+000	0.0000000E+000	0.0000000E+000	0.0000000E+000	1.5452116E+000	3.7070580E+001	8.8454788E+001
1.9356189E+003	1.6724786E+002	4.9566388E+000	1.6732129E+002	-1.6975486E+000	09/05/2018 13:40:49.9877	-1.2637690E-003	2.1999702E-003	1.6588724E+001	1.4557444E-002	1.000000000000000E+000	11	2.1592958E-002	1.2905087E-004	5.9739025E-003	1.7704548E-004	5.9765256E-003	1.6975486E+000	1.4557439E+001	4.9120013E+002	4.9141580E+002	-8.8302452E+001	0.0000000E+000	0.0000000E+000	0.0000000E+000	8.8302452E+001	0.0000000E+000	0.0000000E+000	0.0000000E+000	-8.8302452E+001	0.0000000E+000	0.0000000E+000	0.0000000E+000	-1.6975486E+000	0.0000000E+000	0.0000000E+000	0.0000000E+000	1.6975486E+000	3.3742191E+001	8.8302452E+001
1.4486094E+003	1.6803783E+002	5.5890889E+000	1.6813075E+002	-1.9050068E+000	09/05/2018 13:40:51.6769	-1.2689113E-003	2.1200697E-003	1.9657478E+001	2.1722788E-002	1.000000000000000E+000	11	2.1603772E-002	1.2849388E-004	5.9444648E-003	1.9771823E-004	5.9477519E-003	1.9050068E+000	2.1722784E+001	6.5310291E+002	6.5346405E+002	-8.8094994E+001	0.0000000E+000	0.0000000E+000	0.0000000E+000	8.8094994E+001	0.0000000E+000	0.0000000E+000	0.0000000E+000	-8.8094994E+001	0.0000000E+000	0.0000000E+000	0.0000000E+000	-1.9050068E+000	0.0000000E+000	0.0000000E+000	0.0000000E+000	1.9050068E+000	3.0065334E+001	8.8094994E+001
1.0839595E+003	1.6891701E+002	6.2830453E+000	1.6903381E+002	-2.1301947E+000	09/05/2018 13:40:53.3649	-1.2677188E-003	2.1472620E-003	2.3368826E+001	3.2287180E-002	1.000000000000000E+000	11	2.1609593E-002	1.2784183E-004	5.9118881E-003	2.1989888E-004	5.9159761E-003	2.1301947E+000	3.2287193E+001	8.6802710E+002	8.6862738E+002	-8.7869804E+001	0.0000000E+000	0.0000000E+000	0.0000000E+000	8.7869804E+001	0.0000000E+000	0.0000000E+000	0.0000000E+000	-8.7869804E+001	0.0000000E+000	0.0000000E+000	0.0000000E+000	-2.1301947E+000	0.0000000E+000	0.0000000E+000	0.0000000E+000	2.1301947E+000	2.6884575E+001	8.7869804E+001
8.1129767E+002	1.6987909E+002	7.0964570E+000	1.7002725E+002	-2.3920588E+000	09/05/2018 13:40:55.0504	-1.2767551E-003	2.1357145E-003	2.7643837E+001	4.8155334E-002	1.000000000000000E+000	11	2.1607852E-002	1.2708464E-004	5.8762850E-003	2.4547343E-004	5.8814101E-003	2.3920588E+000	4.8155346E+001	1.1527703E+003	1.1537756E+003	-8.7607941E+001	0.0000000E+000	0.0000000E+000	0.0000000E+000	8.7607941E+001	0.0000000E+000	0.0000000E+000	0.0000000E+000	-8.7607941E+001	0.0000000E+000	0.0000000E+000	0.0000000E+000	-2.3920588E+000	0.0000000E+000	0.0000000E+000	0.0000000E+000	2.3920588E+000	2.3938578E+001	8.7607941E+001
6.0752716E+002	1.7103360E+002	8.1155872E+000	1.7122603E+002	-2.7166615E+000	09/05/2018 13:40:56.7309	-1.2757118E-003	2.1420470E-003	3.2280071E+001	7.2516158E-002	1.000000000000000E+000	11	2.1614524E-002	1.2623386E-004	5.8336700E-003	2.7680909E-004	5.8402335E-003	2.7166615E+000	7.2516106E+001	1.5282566E+003	1.5299761E+003	-8.7283340E+001	0.0000000E+000	0.0000000E+000	0.0000000E+000	8.7283340E+001	0.0000000E+000	0.0000000E+000	0.0000000E+000	-8.7283340E+001	0.0000000E+000	0.0000000E+000	0.0000000E+000	-2.7166615E+000	0.0000000E+000	0.0000000E+000	0.0000000E+000	2.7166615E+000	2.1074703E+001	8.7283340E+001
4.5456351E+002	1.7229561E+002	9.2530918E+000	1.7254390E+002	-3.0741022E+000	09/05/2018 13:40:58.4199	-1.2638435E-003	2.1900989E-003	3.7838917E+001	1.0882113E-001	1.000000000000000E+000	11	2.1613922E-002	1.2526622E-004	5.7872864E-003	3.1080475E-004	5.7956264E-003	3.0741022E+000	1.0882121E+002	2.0262852E+003	2.0292052E+003	-8.6925896E+001	0.0000000E+000	0.0000000E+000	0.0000000E+000	8.6925896E+001	0.0000000E+000	0.0000000E+000	0.0000000E+000	-8.6925896E+001	0.0000000E+000	0.0000000E+000	0.0000000E+000	-3.0741022E+000	0.0000000E+000	0.0000000E+000	0.0000000E+000	3.0741022E+000	1.8620329E+001	8.6925896E+001
3.4010876E+002	1.7370085E+002	1.0650430E+001	1.7402705E+002	-3.5086856E+000	09/05/2018 13:41:00.1077	-1.2707930E-003	2.1727779E-003	4.3937485E+001	1.6456442E-001	1.000000000000000E+000	11	2.1613004E-002	1.2419335E-004	5.7354616E-003	3.5166857E-004	5.7462328E-003	3.5086856E+000	1.6456425E+002	2.6839272E+003	2.6889675E+003	-8.6491318E+001	0.0000000E+000	0.0000000E+000	0.0000000E+000	8.6491318E+001	0.0000000E+000	0.0000000E+000	0.0000000E+000	-8.6491318E+001	0.0000000E+000	0.0000000E+000	0.0000000E+000	-3.5086856E+000	0.0000000E+000	0.0000000E+000	0.0000000E+000	3.5086856E+000	1.6309280E+001	8.6491318E+001
2.5443001E+002	1.7533723E+002	1.2211888E+001	1.7576199E+002	-3.9841027E+000	09/05/2018 13:41:01.7972	-1.2706626E-003	2.1677495E-003	5.1223469E+001	2.4727756E-001	1.000000000000000E+000	11	2.1614527E-002	1.2297611E-004	5.6757624E-003	3.9530551E-004	5.6895120E-003	3.9841027E+000	2.4727737E+002	3.5503894E+003	3.5589902E+003	-8.6015900E+001	0.0000000E+000	0.0000000E+000	0.0000000E+000	8.6015900E+001	0.0000000E+000	0.0000000E+000	0.0000000E+000	-8.6015900E+001	0.0000000E+000	0.0000000E+000	0.0000000E+000	-3.9841027E+000	0.0000000E+000	0.0000000E+000	0.0000000E+000	3.9841027E+000	1.4357913E+001	8.6015900E+001
1.9054874E+002	1.7728265E+002	1.4061675E+001	1.7783945E+002	-4.5350823E+000	09/05/2018 13:41:03.4792	-1.2716128E-003	2.1906579E-003	5.9398705E+001	3.7135983E-001	1.000000000000000E+000	11	2.1613292E-002	1.2153261E-004	5.6054443E-003	4.4461168E-004	5.6230496E-003	4.5350823E+000	3.7135962E+002	4.6819209E+003	4.6966255E+003	-8.5464920E+001	0.0000000E+000	0.0000000E+000	0.0000000E+000	8.5464920E+001	0.0000000E+000	0.0000000E+000	0.0000000E+000	-8.5464920E+001	0.0000000E+000	0.0000000E+000	0.0000000E+000	-4.5350823E+000	0.0000000E+000	0.0000000E+000	0.0000000E+000	4.5350823E+000	1.2607506E+001	8.5464920E+001
1.4249214E+002	1.7945975E+002	1.6219755E+001	1.8019124E+002	-5.1644192E+000	09/05/2018 13:41:05.1933	-1.2678680E-003	2.1126200E-003	6.8862839E+001	5.5796403E-001	1.000000000000000E+000	11	2.1611011E-002	1.1993375E-004	5.5271308E-003	4.9954769E-004	5.5496595E-003	5.1644192E+000	5.5796417E+002	6.1734639E+003	6.1986274E+003	-8.4835579E+001	0.0000000E+000	0.0000000E+000	0.0000000E+000	8.4835579E+001	0.0000000E+000	0.0000000E+000	0.0000000E+000	-8.4835579E+001	0.0000000E+000	0.0000000E+000	0.0000000E+000	-5.1644192E+000	0.0000000E+000	0.0000000E+000	0.0000000E+000	5.1644192E+000	1.1064270E+001	8.4835579E+001
1.0667264E+002	1.8193599E+002	1.8735435E+001	1.8289812E+002	-5.8794899E+000	09/05/2018 13:41:06.8546	-1.2770719E-003	2.0902704E-003	7.9634872E+001	8.3562690E-001	1.000000000000000E+000	11	2.1606952E-002	1.1813654E-004	5.4387632E-003	5.6007388E-004	5.4675248E-003	5.8794899E+000	8.3562634E+002	8.1146025E+003	8.1575146E+003	-8.4120514E+001	0.0000000E+000	0.0000000E+000	0.0000000E+000	8.4120514E+001	0.0000000E+000	0.0000000E+000	0.0000000E+000	-8.4120514E+001	0.0000000E+000	0.0000000E+000	0.0000000E+000	-5.8794899E+000	0.0000000E+000	0.0000000E+000	0.0000000E+000	5.8794899E+000	9.7107954E+000	8.4120514E+001
7.9821213E+001	1.8494601E+002	2.1564804E+001	1.8619901E+002	-6.6506867E+000	09/05/2018 13:41:08.5462	-1.2704391E-003	2.1178350E-003	9.2460518E+001	1.2402025E+000	1.000000000000000E+000	11	2.1610018E-002	1.1605872E-004	5.3344574E-003	6.2200060E-004	5.3705978E-003	6.6506867E+000	1.2402028E+003	1.0636336E+004	1.0708396E+004	-8.3349312E+001	0.0000000E+000	0.0000000E+000	0.0000000E+000	8.3349312E+001	0.0000000E+000	0.0000000E+000	0.0000000E+000	-8.3349312E+001	0.0000000E+000	0.0000000E+000	0.0000000E+000	-6.6506867E+000	0.0000000E+000	0.0000000E+000	0.0000000E+000	6.6506867E+000	8.5762901E+000	8.3349312E+001
