EC-Lab ASCII FILE
Nb header lines : 70                          

Potentio Electrochemical Impedance Spectroscopy

Run on channel : 8 (SN 13213)
User : 
CE vs. WE compliance from -10 V to 10 V
Electrode connection : standard
Potential control : Ewe
Ewe ctrl range : min = -1.00 V, max = 1.00 V
Safety Limits :
	Do not start on E overload
Acquisition started on : 09/05/2018 13:41:35.000
Loaded Setting File : NONE
Saved on :
	File : RM_stacked second run D3_2_C08.mpr
	Directory : D:\Robert\Stacked cells\Second run 3% and 12% PVDF electrodes 12%compressed\
	Host : 10.5.5.6
Device : VMP3 (SN 0628)
Address : 10.5.5.5
EC-Lab for windows v11.17 (software)
Internet server v11.16 (firmware)
Command interpretor v11.16 (firmware)
Electrode material : 
Initial state : 
Electrolyte : 
Comments : 
Electrode surface area : 0.001 cm²
Characteristic mass : 0.001 g
Equivalent Weight : 0.000 g/eq.
Density : 0.000 g/cm3
Volume (V) : 0.000 m³
Text export
   Mode : Standard
   Time format : Elapsed
Cycle Definition : Charge/Discharge alternance
Mode                Single sine         
E (V)               0.0000              
vs.                 Eoc                 
tE (h:m:s)          0:00:3.0000         
record              1                   
dI                  0.000               
unit dI             mA                  
dt (s)              60.000              
fi                  200.000             
unit fi             kHz                 
ff                  10.000              
unit ff             mHz                 
Nd                  8                   
Points              per decade          
spacing             Logarithmic         
Va (mV)             20.0                
pw                  3.00                
Na                  5                   
corr                0                   
E range min (V)     -1.000              
E range max (V)     1.000               
I Range             Auto                
Bandwidth           5                   
nc cycles           0                   
goto Ns'            0                   
nr cycles           0                   
inc. cycle          0                   

Modify on : 09/05/2018 14:32
No text export
ff                  8.000               

freq/Hz	Re(Z)/Ohm	-Im(Z)/Ohm	|Z|/Ohm	Phase(Z)/deg	time/s	<Ewe>/V	<I>/mA	Cs/µF	Cp/µF	cycle number	I Range	|Ewe|/V	|I|/A	Re(Y)/Ohm-1	Im(Y)/Ohm-1	|Y|/Ohm-1	Phase(Y)/deg	Re(C)/nF	Im(C)/nF	|C|/nF	Phase(C)/deg	Re(M)	Im(M)	|M|	Phase(M)/deg	Re(Permittivity)	Im(Permittivity)	|Permittivity|	Phase(Permittivity)/deg	Re(Resistivity)/Ohm.cm	Im(Resistivity)/Ohm.cm	|Resistivity|/Ohm.cm	Phase(Resistivity)/deg	Re(Conductivity)/mS/cm	Im(Conductivity)/mS/cm	|Conductivity|/mS/cm	Phase(Conductivity)/deg	Tan(Delta)	Loss Angle(Delta)/deg	
2.0001948E+005	1.4918987E+002	4.5826641E-001	1.4919057E+002	-1.7599486E-001	09/05/2018 13:41:40.3311	-5.8358088E-003	2.1433155E-003	1.7363201E+000	1.6382612E-005	1.000000000000000E+000	11	1.8158205E-002	1.2171148E-004	6.7028049E-003	2.0589003E-005	6.7028366E-003	1.7599486E-001	1.6382612E-002	5.3334031E+000	5.3334284E+000	-8.9824005E+001	0.0000000E+000	0.0000000E+000	0.0000000E+000	8.9824005E+001	0.0000000E+000	0.0000000E+000	0.0000000E+000	-8.9824005E+001	0.0000000E+000	0.0000000E+000	0.0000000E+000	-1.7599486E-001	0.0000000E+000	0.0000000E+000	0.0000000E+000	1.7599486E-001	3.2555270E+002	8.9824005E+001
1.4967770E+005	1.4867947E+002	8.9106888E-001	1.4868214E+002	-3.4338212E-001	09/05/2018 13:41:41.3961	-5.7409503E-003	2.6570018E-003	1.1933059E+000	4.2860444E-005	1.000000000000000E+000	11	2.0491354E-002	1.3781988E-004	6.7256368E-003	4.0308223E-005	6.7257574E-003	3.4338212E-001	4.2860653E-002	7.1514883E+000	7.1516166E+000	-8.9656616E+001	0.0000000E+000	0.0000000E+000	0.0000000E+000	8.9656616E+001	0.0000000E+000	0.0000000E+000	0.0000000E+000	-8.9656616E+001	0.0000000E+000	0.0000000E+000	0.0000000E+000	-3.4338212E-001	0.0000000E+000	0.0000000E+000	0.0000000E+000	3.4338212E-001	1.6685519E+002	8.9656616E+001
1.1201170E+005	1.4852374E+002	1.2283957E+000	1.4852882E+002	-4.7386557E-001	09/05/2018 13:41:42.4601	-5.7259551E-003	2.7252443E-003	1.1566941E+000	7.9117679E-005	1.000000000000000E+000	11	2.0798318E-002	1.4002883E-004	6.7324699E-003	5.5682256E-005	6.7326999E-003	4.7386557E-001	7.9118311E-002	9.5660172E+000	9.5663443E+000	-8.9526131E+001	0.0000000E+000	0.0000000E+000	0.0000000E+000	8.9526131E+001	0.0000000E+000	0.0000000E+000	0.0000000E+000	-8.9526131E+001	0.0000000E+000	0.0000000E+000	0.0000000E+000	-4.7386557E-001	0.0000000E+000	0.0000000E+000	0.0000000E+000	4.7386557E-001	1.2090871E+002	8.9526131E+001
8.3828102E+004	1.4857106E+002	1.5344639E+000	1.4857898E+002	-5.9173822E-001	09/05/2018 13:41:43.5251	-5.7175998E-003	2.7310248E-003	1.2372966E+000	1.3196915E-004	1.000000000000000E+000	11	2.0664658E-002	1.3908198E-004	6.7300680E-003	6.9509137E-005	6.7304270E-003	5.9173822E-001	1.3196862E-001	1.2777619E+001	1.2778301E+001	-8.9408264E+001	0.0000000E+000	0.0000000E+000	0.0000000E+000	8.9408264E+001	0.0000000E+000	0.0000000E+000	0.0000000E+000	-8.9408264E+001	0.0000000E+000	0.0000000E+000	0.0000000E+000	-5.9173822E-001	0.0000000E+000	0.0000000E+000	0.0000000E+000	5.9173822E-001	9.6822784E+001	8.9408264E+001
6.2734359E+004	1.4880750E+002	1.8433180E+000	1.4881891E+002	-7.0970172E-001	09/05/2018 13:41:44.5901	-5.7187746E-003	2.7504161E-003	1.3763041E+000	2.1115370E-004	1.000000000000000E+000	11	2.0592153E-002	1.3837054E-004	6.7190607E-003	8.3230785E-005	6.7195762E-003	7.0970172E-001	2.1115366E-001	1.7046030E+001	1.7047338E+001	-8.9290298E+001	0.0000000E+000	0.0000000E+000	0.0000000E+000	8.9290298E+001	0.0000000E+000	0.0000000E+000	0.0000000E+000	-8.9290298E+001	0.0000000E+000	0.0000000E+000	0.0000000E+000	-7.0970172E-001	0.0000000E+000	0.0000000E+000	0.0000000E+000	7.0970172E-001	8.0728065E+001	8.9290298E+001
4.6953109E+004	1.4905981E+002	2.0975204E+000	1.4907457E+002	-8.0619407E-001	09/05/2018 13:41:45.6541	-5.6916378E-003	2.8423390E-003	1.6160306E+000	3.1992988E-004	1.000000000000000E+000	11	2.0526098E-002	1.3769013E-004	6.7073880E-003	9.4384144E-005	6.7080520E-003	8.0619407E-001	3.1992850E-001	2.2735746E+001	2.2737997E+001	-8.9193810E+001	0.0000000E+000	0.0000000E+000	0.0000000E+000	8.9193810E+001	0.0000000E+000	0.0000000E+000	0.0000000E+000	-8.9193810E+001	0.0000000E+000	0.0000000E+000	0.0000000E+000	-8.0619407E-001	0.0000000E+000	0.0000000E+000	0.0000000E+000	8.0619407E-001	7.1064774E+001	8.9193810E+001
3.5136707E+004	1.4942307E+002	2.3278697E+000	1.4944119E+002	-8.9254171E-001	09/05/2018 13:41:46.7191	-5.7028467E-003	2.8156759E-003	1.9458101E+000	4.7214684E-004	1.000000000000000E+000	11	2.0398397E-002	1.3649782E-004	6.6907834E-003	1.0423607E-004	6.6915955E-003	8.9254171E-001	4.7214594E-001	3.0306520E+001	3.0310198E+001	-8.9107460E+001	0.0000000E+000	0.0000000E+000	0.0000000E+000	8.9107460E+001	0.0000000E+000	0.0000000E+000	0.0000000E+000	-8.9107460E+001	0.0000000E+000	0.0000000E+000	0.0000000E+000	-8.9254171E-001	0.0000000E+000	0.0000000E+000	0.0000000E+000	8.9254171E-001	6.4188759E+001	8.9107460E+001
2.6298820E+004	1.4965108E+002	2.6172597E+000	1.4967397E+002	-1.0019484E+000	09/05/2018 13:41:47.7841	-5.6916378E-003	2.8190322E-003	2.3122621E+000	7.0703053E-004	1.000000000000000E+000	11	2.0288624E-002	1.3555212E-004	6.6801668E-003	1.1682998E-004	6.6811885E-003	1.0019484E+000	7.0702857E-001	4.0426971E+001	4.0433155E+001	-8.8998055E+001	0.0000000E+000	0.0000000E+000	0.0000000E+000	8.8998055E+001	0.0000000E+000	0.0000000E+000	0.0000000E+000	-8.8998055E+001	0.0000000E+000	0.0000000E+000	0.0000000E+000	-1.0019484E+000	0.0000000E+000	0.0000000E+000	0.0000000E+000	1.0019484E+000	5.7178535E+001	8.8998055E+001
1.9677732E+004	1.5005469E+002	2.9220033E+000	1.5008313E+002	-1.1155753E+000	09/05/2018 13:41:48.7231	-5.6993216E-003	2.8699345E-003	2.7679892E+000	1.0492090E-003	1.000000000000000E+000	11	2.1961629E-002	1.4632977E-004	6.6617113E-003	1.2972299E-004	6.6629741E-003	1.1155753E+000	1.0492114E+000	5.3880409E+001	5.3890625E+001	-8.8884422E+001	0.0000000E+000	0.0000000E+000	0.0000000E+000	8.8884422E+001	0.0000000E+000	0.0000000E+000	0.0000000E+000	-8.8884422E+001	0.0000000E+000	0.0000000E+000	0.0000000E+000	-1.1155753E+000	0.0000000E+000	0.0000000E+000	0.0000000E+000	1.1155753E+000	5.1353359E+001	8.8884422E+001
1.4726557E+004	1.5046239E+002	3.3165631E+000	1.5049893E+002	-1.2627362E+000	09/05/2018 13:41:49.7881	-5.7042083E-003	2.8339485E-003	3.2585967E+000	1.5824877E-003	1.000000000000000E+000	11	2.0256449E-002	1.3459529E-004	6.6429521E-003	1.4642709E-004	6.6445656E-003	1.2627362E+000	1.5824841E+000	7.1792648E+001	7.1810089E+001	-8.8737267E+001	0.0000000E+000	0.0000000E+000	0.0000000E+000	8.8737267E+001	0.0000000E+000	0.0000000E+000	0.0000000E+000	-8.8737267E+001	0.0000000E+000	0.0000000E+000	0.0000000E+000	-1.2627362E+000	0.0000000E+000	0.0000000E+000	0.0000000E+000	1.2627362E+000	4.5366959E+001	8.8737267E+001
1.1025388E+004	1.5097850E+002	3.8622742E+000	1.5102789E+002	-1.4653990E+000	09/05/2018 13:41:50.7271	-5.7037049E-003	2.8158624E-003	3.7375169E+000	2.4443029E-003	1.000000000000000E+000	11	2.0882340E-002	1.3826811E-004	6.6191279E-003	1.6932799E-004	6.6212933E-003	1.4653990E+000	2.4443054E+000	9.5549194E+001	9.5580452E+001	-8.8534599E+001	0.0000000E+000	0.0000000E+000	0.0000000E+000	8.8534599E+001	0.0000000E+000	0.0000000E+000	0.0000000E+000	-8.8534599E+001	0.0000000E+000	0.0000000E+000	0.0000000E+000	-1.4653990E+000	0.0000000E+000	0.0000000E+000	0.0000000E+000	1.4653990E+000	3.9090569E+001	8.8534599E+001
8.3251924E+003	1.5155986E+002	4.4125805E+000	1.5162408E+002	-1.6676633E+000	09/05/2018 13:41:51.8186	-5.6864899E-003	2.9322107E-003	4.3324466E+000	3.6692906E-003	1.000000000000000E+000	11	2.1248432E-002	1.4013890E-004	6.5924646E-003	1.9193591E-004	6.5952581E-003	1.6676633E+000	3.6692908E+000	1.2602991E+002	1.2608332E+002	-8.8332336E+001	0.0000000E+000	0.0000000E+000	0.0000000E+000	8.8332336E+001	0.0000000E+000	0.0000000E+000	0.0000000E+000	-8.8332336E+001	0.0000000E+000	0.0000000E+000	0.0000000E+000	-1.6676633E+000	0.0000000E+000	0.0000000E+000	0.0000000E+000	1.6676633E+000	3.4347218E+001	8.8332336E+001
6.1954932E+003	1.5239522E+002	5.1316919E+000	1.5248160E+002	-1.9286250E+000	09/05/2018 13:41:53.2339	-5.6908173E-003	2.7856561E-003	5.0059175E+000	5.6698294E-003	1.000000000000000E+000	11	2.1473784E-002	1.4082869E-004	6.5544532E-003	2.2071187E-004	6.5581682E-003	1.9286250E+000	5.6698351E+000	1.6837622E+002	1.6847165E+002	-8.8071373E+001	0.0000000E+000	0.0000000E+000	0.0000000E+000	8.8071373E+001	0.0000000E+000	0.0000000E+000	0.0000000E+000	-8.8071373E+001	0.0000000E+000	0.0000000E+000	0.0000000E+000	-1.9286250E+000	0.0000000E+000	0.0000000E+000	0.0000000E+000	1.9286250E+000	2.9696877E+001	8.8071373E+001
4.6214780E+003	1.5340062E+002	5.9323521E+000	1.5351529E+002	-2.2146549E+000	09/05/2018 13:41:54.9207	-5.6965430E-003	2.7951654E-003	5.8051348E+000	8.6688781E-003	1.000000000000000E+000	11	2.1596320E-002	1.4067863E-004	6.5091434E-003	2.5172342E-004	6.5140091E-003	2.2146549E+000	8.6688700E+000	2.2416257E+002	2.2433012E+002	-8.7785347E+001	0.0000000E+000	0.0000000E+000	0.0000000E+000	8.7785347E+001	0.0000000E+000	0.0000000E+000	0.0000000E+000	-8.7785347E+001	0.0000000E+000	0.0000000E+000	0.0000000E+000	-2.2146549E+000	0.0000000E+000	0.0000000E+000	0.0000000E+000	2.2146549E+000	2.5858313E+001	8.7785347E+001
3.4561052E+003	1.5454370E+002	6.6058688E+000	1.5468481E+002	-2.4475806E+000	09/05/2018 13:41:56.6077	-5.6879637E-003	2.7595523E-003	6.9711304E+000	1.2713577E-002	1.000000000000000E+000	11	2.1663830E-002	1.4005143E-004	6.4588613E-003	2.7607978E-004	6.4647589E-003	2.4475806E+000	1.2713566E+001	2.9743295E+002	2.9770456E+002	-8.7552422E+001	0.0000000E+000	0.0000000E+000	0.0000000E+000	8.7552422E+001	0.0000000E+000	0.0000000E+000	0.0000000E+000	-8.7552422E+001	0.0000000E+000	0.0000000E+000	0.0000000E+000	-2.4475806E+000	0.0000000E+000	0.0000000E+000	0.0000000E+000	2.4475806E+000	2.3394909E+001	8.7552422E+001
2.5858269E+003	1.5588106E+002	7.3317432E+000	1.5605339E+002	-2.6928775E+000	09/05/2018 13:41:58.2947	-5.6904443E-003	2.7946064E-003	8.3948593E+000	1.8530261E-002	1.000000000000000E+000	11	2.1692157E-002	1.3900471E-004	6.4009870E-003	3.0106542E-004	6.4080632E-003	2.6928775E+000	1.8530270E+001	3.9397406E+002	3.9440961E+002	-8.7307121E+001	0.0000000E+000	0.0000000E+000	0.0000000E+000	8.7307121E+001	0.0000000E+000	0.0000000E+000	0.0000000E+000	-8.7307121E+001	0.0000000E+000	0.0000000E+000	0.0000000E+000	-2.6928775E+000	0.0000000E+000	0.0000000E+000	0.0000000E+000	2.6928775E+000	2.1261118E+001	8.7307121E+001
1.9356189E+003	1.5737607E+002	7.9039216E+000	1.5757442E+002	-2.8751588E+000	09/05/2018 13:41:59.9817	-5.6927009E-003	2.7996406E-003	1.0402978E+001	2.6174083E-002	1.000000000000000E+000	11	2.1711033E-002	1.3778273E-004	6.3382196E-003	3.1832536E-004	6.3462080E-003	2.8751588E+000	2.6174097E+001	5.2115576E+002	5.2181262E+002	-8.7124840E+001	0.0000000E+000	0.0000000E+000	0.0000000E+000	8.7124840E+001	0.0000000E+000	0.0000000E+000	0.0000000E+000	-8.7124840E+001	0.0000000E+000	0.0000000E+000	0.0000000E+000	-2.8751588E+000	0.0000000E+000	0.0000000E+000	0.0000000E+000	2.8751588E+000	1.9911137E+001	8.7124840E+001
1.4486094E+003	1.5890154E+002	8.4525862E+000	1.5912619E+002	-3.0449140E+000	09/05/2018 13:42:01.6699	-5.6906678E-003	2.7588068E-003	1.2998081E+001	3.6675423E-002	1.000000000000000E+000	11	2.1720042E-002	1.3649571E-004	6.2754485E-003	3.3381535E-004	6.2843207E-003	3.0449140E+000	3.6675430E+001	6.8946722E+002	6.9044202E+002	-8.6955086E+001	0.0000000E+000	0.0000000E+000	0.0000000E+000	8.6955086E+001	0.0000000E+000	0.0000000E+000	0.0000000E+000	-8.6955086E+001	0.0000000E+000	0.0000000E+000	0.0000000E+000	-3.0449140E+000	0.0000000E+000	0.0000000E+000	0.0000000E+000	3.0449140E+000	1.8799162E+001	8.6955086E+001
1.0839595E+003	1.6043678E+002	8.9870090E+000	1.6068829E+002	-3.2061234E+000	09/05/2018 13:42:03.3579	-5.6881686E-003	2.7755878E-003	1.6337736E+001	5.1103871E-002	1.000000000000000E+000	11	2.1723064E-002	1.3518760E-004	6.2134881E-003	3.4805405E-004	6.2232288E-003	3.2061234E+000	5.1103867E+001	9.1231024E+002	9.1374042E+002	-8.6793877E+001	0.0000000E+000	0.0000000E+000	0.0000000E+000	8.6793877E+001	0.0000000E+000	0.0000000E+000	0.0000000E+000	-8.6793877E+001	0.0000000E+000	0.0000000E+000	0.0000000E+000	-3.2061234E+000	0.0000000E+000	0.0000000E+000	0.0000000E+000	3.2061234E+000	1.7852077E+001	8.6793877E+001
8.1129767E+002	1.6199065E+002	9.5810022E+000	1.6227374E+002	-3.3848388E+000	09/05/2018 13:42:05.0434	-5.6857625E-003	2.8274225E-003	2.0475237E+001	7.1376346E-002	1.000000000000000E+000	11	2.1722622E-002	1.3386406E-004	6.1516762E-003	3.6384337E-004	6.1624264E-003	3.3848388E+000	7.1376419E+001	1.2067946E+003	1.2089036E+003	-8.6615158E+001	0.0000000E+000	0.0000000E+000	0.0000000E+000	8.6615158E+001	0.0000000E+000	0.0000000E+000	0.0000000E+000	-8.6615158E+001	0.0000000E+000	0.0000000E+000	0.0000000E+000	-3.3848388E+000	0.0000000E+000	0.0000000E+000	0.0000000E+000	3.3848388E+000	1.6907484E+001	8.6615158E+001
6.0752716E+002	1.6353833E+002	1.0281835E+001	1.6386122E+002	-3.5975137E+000	09/05/2018 13:42:06.7239	-5.6969346E-003	2.7798763E-003	2.5479084E+001	1.0031657E-001	1.000000000000000E+000	11	2.1723429E-002	1.3257211E-004	6.0906997E-003	3.8292899E-004	6.1027254E-003	3.5975137E+000	1.0031650E+002	1.5955911E+003	1.5987415E+003	-8.6402489E+001	0.0000000E+000	0.0000000E+000	0.0000000E+000	8.6402489E+001	0.0000000E+000	0.0000000E+000	0.0000000E+000	-8.6402489E+001	0.0000000E+000	0.0000000E+000	0.0000000E+000	-3.5975137E+000	0.0000000E+000	0.0000000E+000	0.0000000E+000	3.5975137E+000	1.5905560E+001	8.6402489E+001
4.5456351E+002	1.6517192E+002	1.1137442E+001	1.6554700E+002	-3.8575799E+000	09/05/2018 13:42:08.4129	-5.6919362E-003	2.7569418E-003	3.1436932E+001	1.4228804E-001	1.000000000000000E+000	11	2.1721734E-002	1.3121188E-004	6.0268948E-003	4.0638982E-004	6.0405806E-003	3.8575799E+000	1.4228812E+002	2.1101785E+003	2.1149702E+003	-8.6142418E+001	0.0000000E+000	0.0000000E+000	0.0000000E+000	8.6142418E+001	0.0000000E+000	0.0000000E+000	0.0000000E+000	-8.6142418E+001	0.0000000E+000	0.0000000E+000	0.0000000E+000	-3.8575799E+000	0.0000000E+000	0.0000000E+000	0.0000000E+000	3.8575799E+000	1.4830329E+001	8.6142418E+001
3.4010876E+002	1.6695247E+002	1.2326654E+001	1.6740691E+002	-4.2226758E+000	09/05/2018 13:42:10.0997	-5.6879260E-003	2.7750279E-003	3.7962700E+001	2.0582627E-001	1.000000000000000E+000	11	2.1721881E-002	1.2975499E-004	5.9572533E-003	4.3984383E-004	5.9734690E-003	4.2226758E+000	2.0582643E+002	2.7877151E+003	2.7953032E+003	-8.5777321E+001	0.0000000E+000	0.0000000E+000	0.0000000E+000	8.5777321E+001	0.0000000E+000	0.0000000E+000	0.0000000E+000	-8.5777321E+001	0.0000000E+000	0.0000000E+000	0.0000000E+000	-4.2226758E+000	0.0000000E+000	0.0000000E+000	0.0000000E+000	4.2226758E+000	1.3544022E+001	8.5777321E+001
2.5443001E+002	1.6882863E+002	1.3677007E+001	1.6938171E+002	-4.6314845E+000	09/05/2018 13:42:11.7902	-5.6927009E-003	2.7317703E-003	4.5736271E+001	2.9820150E-001	1.000000000000000E+000	11	2.1723272E-002	1.2825039E-004	5.8845473E-003	4.7671411E-004	5.9038252E-003	4.6314845E+000	2.9820151E+002	3.6809917E+003	3.6930508E+003	-8.5368515E+001	0.0000000E+000	0.0000000E+000	0.0000000E+000	8.5368515E+001	0.0000000E+000	0.0000000E+000	0.0000000E+000	-8.5368515E+001	0.0000000E+000	0.0000000E+000	0.0000000E+000	-4.6314845E+000	0.0000000E+000	0.0000000E+000	0.0000000E+000	4.6314845E+000	1.2343975E+001	8.5368515E+001
1.9054874E+002	1.7085577E+002	1.5355860E+001	1.7154445E+002	-5.1357255E+000	09/05/2018 13:42:13.4712	-5.6926450E-003	2.7584331E-003	5.4392612E+001	4.3584779E-001	1.000000000000000E+000	11	2.1721207E-002	1.2662145E-004	5.8059907E-003	5.2182010E-004	5.8293929E-003	5.1357255E+000	4.3584790E+002	4.8494263E+003	4.8689731E+003	-8.4864273E+001	0.0000000E+000	0.0000000E+000	0.0000000E+000	8.4864273E+001	0.0000000E+000	0.0000000E+000	0.0000000E+000	-8.4864273E+001	0.0000000E+000	0.0000000E+000	0.0000000E+000	-5.1357255E+000	0.0000000E+000	0.0000000E+000	0.0000000E+000	5.1357255E+000	1.1126422E+001	8.4864273E+001
1.4249214E+002	1.7326794E+002	1.7354969E+001	1.7413493E+002	-5.7198176E+000	09/05/2018 13:42:15.1853	-5.6891013E-003	2.8016912E-003	6.4358421E+001	6.3926548E-001	1.000000000000000E+000	11	2.1722581E-002	1.2474568E-004	5.7140812E-003	5.7233730E-004	5.7426733E-003	5.7198176E+000	6.3926556E+002	6.3822764E+003	6.4142119E+003	-8.4280182E+001	0.0000000E+000	0.0000000E+000	0.0000000E+000	8.4280182E+001	0.0000000E+000	0.0000000E+000	0.0000000E+000	-8.4280182E+001	0.0000000E+000	0.0000000E+000	0.0000000E+000	-5.7198176E+000	0.0000000E+000	0.0000000E+000	0.0000000E+000	5.7198176E+000	9.9837656E+000	8.4280182E+001
1.0667264E+002	1.7597060E+002	1.9748919E+001	1.7707532E+002	-6.4034262E+000	09/05/2018 13:42:16.8466	-5.6944168E-003	2.7358725E-003	7.5548141E+001	9.3971109E-001	1.000000000000000E+000	11	2.1720314E-002	1.2266144E-004	5.6120818E-003	6.2983570E-004	5.6473142E-003	6.4034262E+000	9.3971118E+002	8.3731924E+003	8.4257588E+003	-8.3596573E+001	0.0000000E+000	0.0000000E+000	0.0000000E+000	8.3596573E+001	0.0000000E+000	0.0000000E+000	0.0000000E+000	-8.3596573E+001	0.0000000E+000	0.0000000E+000	0.0000000E+000	-6.4034262E+000	0.0000000E+000	0.0000000E+000	0.0000000E+000	6.4034262E+000	8.9103918E+000	8.3596573E+001
7.9821213E+001	1.7903833E+002	2.2553415E+001	1.8045326E+002	-7.1797180E+000	09/05/2018 13:42:18.5382	-5.6971023E-003	2.7506028E-003	8.8407585E+001	1.3809713E+000	1.000000000000000E+000	11	2.1722695E-002	1.2037851E-004	5.4981494E-003	6.9260056E-004	5.5416012E-003	7.1797180E+000	1.3809712E+003	1.0962721E+004	1.1049358E+004	-8.2820282E+001	0.0000000E+000	0.0000000E+000	0.0000000E+000	8.2820282E+001	0.0000000E+000	0.0000000E+000	0.0000000E+000	-8.2820282E+001	0.0000000E+000	0.0000000E+000	0.0000000E+000	-7.1797180E+000	0.0000000E+000	0.0000000E+000	0.0000000E+000	7.1797180E+000	7.9384131E+000	8.2820282E+001
